!Created with skrf (http://scikit-rf.org).
# Hz S RI R 50.0 
!freq ReS11 ImS11 ReS21 ImS21 ReS12 ImS12 ReS22 ImS22
100000000.0 0.9984265842129214 -0.005661127484588077 -1.3954096009210686 0.00612040772290348 2.131158260187416e-06 0.0010596507192255009 0.9011033151486662 -0.002567154335140327
200000000.0 0.997220573692153 -0.011046152309182898 -1.3964265604277095 0.014541736766755438 2.025348512384094e-05 0.002133868849112379 0.9002456870236413 -0.005232861976201246
300000000.0 0.9974633741338819 -0.016488659691247208 -1.3969976597651117 0.024377918951509644 4.7916312393409704e-05 0.003183987810684547 0.89968196590452 -0.009036130375012011
400000000.0 0.9978364226325197 -0.021493526838333214 -1.3972776922890207 0.03385858210032458 9.6324513483749e-05 0.0042541225077828175 0.8996232484015423 -0.012410983155060706
500000000.0 0.9975193665224974 -0.02678760320391348 -1.3963134765107936 0.04159667544417616 0.00013623407327329653 0.005308828574458404 0.899758568467801 -0.01542509687970883
600000000.0 0.9974024004103751 -0.032247700170031084 -1.3967284265815103 0.04981260113390418 0.0001897403043060939 0.006363095056298614 0.8997640974888851 -0.018321385693433168
700000000.0 0.9974677898455919 -0.03751855533801847 -1.3970265919470393 0.057940032420589066 0.0002621008980106473 0.007435705245247347 0.8991243132225396 -0.021309928478273697
800000000.0 0.9972701158108269 -0.042655339061219315 -1.3976545528122137 0.06610363496102177 0.00032004830831167043 0.00848687314091803 0.8993027106897978 -0.024573741722250703
900000000.0 0.9965017532192555 -0.0478507265989727 -1.3953965636812438 0.07429191058115547 0.00038350295900035734 0.009549851552288659 0.8988188275760897 -0.027806920479288583
1000000000.0 0.9957861034352545 -0.05310951808448415 -1.3941444324804841 0.0825148995832246 0.0004929486304872623 0.010591566113665808 0.8990296981638745 -0.030749276652726053
1100000000.0 0.9952584648485064 -0.05856213338115143 -1.3942340904400399 0.09100666509414221 0.0005939924683630136 0.011651650752971685 0.898573498474804 -0.033806611254743005
1200000000.0 0.9949946334806924 -0.06376379479791136 -1.3938546800626943 0.09932995436757945 0.0006908035299535911 0.012707558707735319 0.8982416925877174 -0.03695474558804741
1300000000.0 0.9944622954422186 -0.06895243253306381 -1.39285131576296 0.1079772425759088 0.0008210460632452219 0.013771680308379771 0.8977634737587137 -0.04007371604391864
1400000000.0 0.9939514795933156 -0.07428297150305666 -1.391245932964856 0.1160635415016334 0.0009395352087894247 0.014793786001676284 0.8977018272479849 -0.04307040027600617
1500000000.0 0.9935120345794346 -0.07956763723362494 -1.3904897052633551 0.12471799595917057 0.0010870237950557865 0.015850324747664422 0.8974727843300666 -0.04597745954561754
1600000000.0 0.9928883903136758 -0.08485491209690699 -1.3894750166558207 0.13316434127264523 0.0012367886977122254 0.016899199192316194 0.8970454885229755 -0.04904591743857017
1700000000.0 0.9922342156853876 -0.08996072368402734 -1.3885448298993546 0.14076583600383516 0.0013821077377653142 0.017945475849862655 0.8963931986930287 -0.05208821350559717
1800000000.0 0.9916654500353386 -0.09527806311421932 -1.3868465214495158 0.1484016903032038 0.0015419387028599734 0.01899335158603321 0.8961502529485676 -0.05522546405435818
1900000000.0 0.9907678182992609 -0.10069969526775137 -1.385154886494654 0.15691225637494294 0.0017024683801059755 0.020017540151311755 0.8958099061987648 -0.0581600134345677
2000000000.0 0.9897631258546417 -0.10589314857359665 -1.383602829088257 0.1653440493012883 0.0019117066439623184 0.021052706841770984 0.895550698612602 -0.06117350520085686
2100000000.0 0.9887492333516013 -0.11096689480863466 -1.3831694724664383 0.17331807737703675 0.002093176570266817 0.02210001769868813 0.8947205812118458 -0.06416621177402383
2200000000.0 0.9881816405692273 -0.1160464175256748 -1.3816253440252089 0.18139096271412614 0.0022970353398078917 0.023130524589242675 0.8940378736193246 -0.06717904582361663
2300000000.0 0.9875508667436306 -0.12137767659038672 -1.3804498548372552 0.18975524653141504 0.0025221594873865057 0.024140967241223686 0.8938277368443772 -0.07028674109055758
2400000000.0 0.9867280049508919 -0.12650890035274326 -1.3787750505754008 0.19797616009038282 0.002747008669699707 0.025194121455188952 0.8932927591251276 -0.07321306678416478
2500000000.0 0.9854229245108139 -0.13173102180462967 -1.3770477691221585 0.2061788558393759 0.0029655074494814157 0.026180422368007102 0.8926630401315238 -0.07610794609524674
2600000000.0 0.9843170136882726 -0.1367429402564579 -1.3758160400728945 0.21407724865041636 0.0032066583547176405 0.027241305582083822 0.8918300982457763 -0.07907450022486345
2700000000.0 0.9830895731344805 -0.14174215824394326 -1.3737521427553352 0.22214654656234553 0.0034476601757586767 0.028250548837470007 0.8914955107437212 -0.08226328400713018
2800000000.0 0.9820156820879319 -0.14684244394877277 -1.3709407988275932 0.2304662173378837 0.0036899172297415483 0.029250765572447452 0.8909781187677775 -0.08521231979844111
2900000000.0 0.9808223814769197 -0.15198919483374934 -1.3687036653285676 0.23870643447962164 0.003977470721249526 0.030272583157678456 0.8900758458591866 -0.0880504925110571
3000000000.0 0.979843746739353 -0.15715783245371143 -1.3667535941111733 0.2469773384152015 0.004275408695078943 0.0313293337917668 0.8889390375014397 -0.09085215072325441
3100000000.0 0.9789423853205794 -0.1622242789320147 -1.36490642516469 0.25503057903015053 0.004559233965676166 0.03229374971583887 0.8884852198431197 -0.09398061957444749
3200000000.0 0.977981648045859 -0.16733653463948425 -1.3628091942523008 0.2629716076864952 0.004827926781613628 0.03327987193481819 0.888059798293573 -0.09703285539162207
3300000000.0 0.9767779747467311 -0.17241952147482897 -1.3602169913356192 0.2704870704621693 0.005127139211966425 0.034315680389604385 0.8870812075344243 -0.09986635236588629
3400000000.0 0.975594367029413 -0.17747283894951732 -1.3584660936459458 0.27809289419886846 0.0054311287605779725 0.03531795206786175 0.8860983527137185 -0.10257547708659727
3500000000.0 0.974452243015201 -0.18262146986659059 -1.3558395324065415 0.2858899744916473 0.005740171301396899 0.03633351820368569 0.885052776231239 -0.10567860451525972
3600000000.0 0.9732794610739239 -0.18745535410798675 -1.3533727442948942 0.29300199914116537 0.0060491019004725805 0.03728917117063189 0.884666270668926 -0.10871108019911305
3700000000.0 0.9720668778031724 -0.1925833831405762 -1.3516225065470695 0.3004891162173581 0.006347231468331314 0.03826879321564603 0.8838823855466291 -0.11149928545020116
3800000000.0 0.970788829364858 -0.19755674255846906 -1.3489283686630236 0.30758881357633805 0.006699171627154795 0.039255273298385525 0.8828580295937348 -0.11413214450085972
3900000000.0 0.9694681694929025 -0.20244862006976772 -1.346586101208821 0.3153947447605929 0.007031794002053404 0.040258018583272805 0.8818589297956924 -0.11705402775529117
4000000000.0 0.968028944307825 -0.20728315467017228 -1.3442268084012579 0.3226480417813458 0.00737423898709608 0.041218814503593854 0.8809141373296853 -0.12018652820058999
4100000000.0 0.9666399665462461 -0.21215889983338415 -1.3420545690110888 0.3294726547174526 0.007730001317406497 0.04216284624221116 0.880278721924748 -0.1229760743337884
4200000000.0 0.9650092060685093 -0.21717096544121825 -1.3395119838601468 0.33681622278229845 0.00806799969922683 0.04311915353225876 0.8793962105653415 -0.12567301525326324
4300000000.0 0.963069126667632 -0.22211301158543703 -1.3360610036440521 0.3447788598292117 0.008465549721324211 0.044033947879481956 0.878460208916748 -0.12833055419878558
4400000000.0 0.9608369394945756 -0.22705520865787032 -1.3330088501535475 0.3529535299551732 0.008878694516340843 0.045064859288252275 0.8768393030630746 -0.13143473188155194
4500000000.0 0.9587589691435103 -0.23182144025712487 -1.3298972918604617 0.3606979075906736 0.009289052439569463 0.04597597754154664 0.8759807432562366 -0.13424194283063792
4600000000.0 0.9569433363707459 -0.23668103457195258 -1.3265899395530996 0.36828260931023515 0.009688626297363943 0.04687659901745755 0.8753162565422515 -0.13703261575399647
4700000000.0 0.9550652988215019 -0.24183053147936492 -1.3232048172521884 0.37699826729554015 0.01017546196885664 0.04782501199499669 0.8739732983884523 -0.13966839911587559
4800000000.0 0.9530658469631593 -0.24681273663458916 -1.3198208441582298 0.3855621901424266 0.010596169167244691 0.04874703938956334 0.8728145791302583 -0.14253155580713406
4900000000.0 0.9511885026393951 -0.2517282132569667 -1.316483436833289 0.3934528621665921 0.011050783728374546 0.04970425030807951 0.8715178766529396 -0.14513653905408136
5000000000.0 0.9494946046139253 -0.25645147671572033 -1.3133016594521632 0.4007150690740572 0.011469838940253803 0.05059153366644469 0.8707359960796169 -0.147892080846467
5100000000.0 0.9476774869280548 -0.26130021606836956 -1.310095723619889 0.4087103646874086 0.011940228574754385 0.051520134965159586 0.8694422943469986 -0.15084786801476283
5200000000.0 0.9458308175379699 -0.2660366465861204 -1.306518391958247 0.41672141573195576 0.012447926588424044 0.05242845651922215 0.8681632624606586 -0.1535952871322775
5300000000.0 0.9440459823875782 -0.2708819702077998 -1.303429076130479 0.4239204013499873 0.012885959524590035 0.05338429724449413 0.8667740123583878 -0.15616642950370477
5400000000.0 0.942484653623647 -0.2755405919062932 -1.2999200416446848 0.4305691650835747 0.013335305209852885 0.05432056133424817 0.8656492413367887 -0.15861630379743377
5500000000.0 0.9410714592651147 -0.28008202676245675 -1.295837240943228 0.4374686261460243 0.01374149225751097 0.0551278933927888 0.8648443533656243 -0.161377745845721
5600000000.0 0.9396820777658558 -0.2846145107014914 -1.2924588954717526 0.44406240762955096 0.01425287326933169 0.056097476527749525 0.8632348452757778 -0.16420304403644073
5700000000.0 0.9380099414617202 -0.28919122056593344 -1.2896112417167835 0.4507028023631724 0.01471223196635641 0.05701928895915563 0.8616843311179221 -0.1668135397949058
5800000000.0 0.9363235875293977 -0.2936546000576299 -1.2865987400713752 0.4566735927693553 0.015148521940840085 0.057939313123105775 0.8605796567635376 -0.1692646762005466
5900000000.0 0.934486097609596 -0.29812627817097664 -1.282457918301478 0.46308307853411473 0.015603205420730093 0.05876979280646693 0.8594080415585902 -0.17194153464577924
6000000000.0 0.9325921753205125 -0.30272198838512726 -1.2787288991881165 0.4696975116852242 0.016057878023399086 0.05958368212111844 0.8583823304199221 -0.1745098798038789
6100000000.0 0.9305558109138881 -0.3073255154279184 -1.2755054606084129 0.47618771916472036 0.016590075222464702 0.06051115364651078 0.8567459184048739 -0.1770784531578068
6200000000.0 0.9282246203210324 -0.3117128214902751 -1.271785969782603 0.48249845279444986 0.01710185487474878 0.06140487862503446 0.8551526576799774 -0.17947042646594785
6300000000.0 0.9260919732982072 -0.31620176340087625 -1.2675573389895614 0.4891884463184873 0.017559770947480065 0.06221371296371318 0.8540474261007085 -0.18220196533916594
6400000000.0 0.9238392589008916 -0.32067383121516274 -1.2630474245275052 0.4957519550106696 0.018075756482964896 0.06298639990680201 0.8528903216025749 -0.1847868321930809
6500000000.0 0.9213341969753694 -0.32551002363353104 -1.2591509943293735 0.5027041700762238 0.018604851039222964 0.06383869652893576 0.8515854501866839 -0.1872336715149961
6600000000.0 0.9184728704805792 -0.3300466967642878 -1.2549848953019311 0.5093640009923044 0.019200828521427057 0.06467069042923156 0.8498276971924644 -0.18950820946302022
6700000000.0 0.9155109813462196 -0.33430840680805246 -1.2502791178110717 0.5163010296085557 0.019744484918353837 0.06552111498475761 0.8482951286648289 -0.19213691545884115
6800000000.0 0.912372881850891 -0.3386703665088989 -1.2454836158389213 0.5241630991753704 0.020363282477491317 0.06629543294378579 0.84681753917963 -0.19494717460929037
6900000000.0 0.9096585742018655 -0.3434172259104073 -1.2410027470046532 0.5313729688288742 0.020983672282917625 0.0670908427606521 0.8453908708857126 -0.19715902501235108
7000000000.0 0.9067086871924995 -0.34800771309364775 -1.2367860034685412 0.5387328148142805 0.021601521603210348 0.06790904475633606 0.8439017996482128 -0.199447163236767
7100000000.0 0.903632516098579 -0.35247683344908404 -1.2321175809068992 0.5465647223182972 0.022269757702461764 0.06871588428161415 0.8421734619520427 -0.20178159060000742
7200000000.0 0.9007087547717645 -0.3567496428844244 -1.2276206830645755 0.5544476044589683 0.02290819211715212 0.06950306986998454 0.8404765917005752 -0.20454123280848807
7300000000.0 0.8988473511845633 -0.36103990475950376 -1.2233047712872247 0.5607102864632721 0.023509178920637145 0.07033536620151092 0.8391413508675286 -0.206820617319677
7400000000.0 0.8970930780483252 -0.36558832349185394 -1.2193302652481317 0.5664831320481649 0.024081688099300065 0.07112321908438396 0.837784174258771 -0.208943160413859
7500000000.0 0.8952108785033839 -0.36980566443806523 -1.2144460014660565 0.572590156780517 0.024702082391596675 0.07189810362076682 0.836050744509162 -0.21105840768273715
7600000000.0 0.8930538780528994 -0.3738670494144816 -1.2101218771092181 0.5788680030471245 0.025333078575874995 0.07266359221308302 0.8343378852152937 -0.21351734501668201
7700000000.0 0.8913812578544021 -0.3778449706108325 -1.206314840555616 0.58397839701917 0.025853965039652888 0.0734918319113287 0.8329042209481492 -0.21592862426689
7800000000.0 0.8897776151780191 -0.3818811228366638 -1.2015211528752718 0.5881087961087939 0.026356968123923095 0.07424351652565406 0.8318618843956676 -0.21801065458011676
7900000000.0 0.8881815712868467 -0.38609432431732593 -1.1972472129345995 0.5929438339549582 0.026874501410218535 0.07495169826743096 0.8303127758898953 -0.22012731999250898
8000000000.0 0.8857971609874352 -0.390151810024499 -1.1924377843130354 0.5992589255755014 0.027513009964446916 0.07568357086572088 0.8284717743464263 -0.22262853030935503
8100000000.0 0.88336705576323 -0.3939554192192144 -1.1887112703922387 0.6050770509995792 0.028105830241695617 0.07642461343844704 0.826830627819821 -0.2249044590863182
8200000000.0 0.8812397607996243 -0.3979185190487822 -1.1845486452810143 0.6094192210745907 0.028604311147835793 0.07714932142654178 0.8257327377242161 -0.22687832993495047
8300000000.0 0.8789490466463004 -0.4021541572492909 -1.1802062864364562 0.614371266425278 0.029159890365401918 0.07787326138678385 0.8241606444416582 -0.22916547799194892
8400000000.0 0.8761289635426436 -0.40625783009119076 -1.1749943357125505 0.620280980957512 0.02979347515859737 0.07854328543137058 0.8224046461765289 -0.23143492313225106
8500000000.0 0.8729382156169465 -0.41026501787343944 -1.1701232332315648 0.6266873724550207 0.030476393718947888 0.07926180839693585 0.8205140688017897 -0.23376096667103524
8600000000.0 0.8699105846015764 -0.4138066952638839 -1.1647749024255827 0.631633639695762 0.03104525335120846 0.07992354575821319 0.8192254343196103 -0.23569677031329156
8700000000.0 0.8668397857472042 -0.41757824876551725 -1.1595367725024885 0.6366956477142343 0.03165137030036623 0.08059548426193573 0.8176361497206549 -0.2380888330072644
8800000000.0 0.8633077882543099 -0.42180907711704235 -1.1543225932793193 0.643270009178277 0.03234406833847966 0.08124727591807837 0.8157496821415434 -0.24042065790948958
8900000000.0 0.8594014646970412 -0.4261239185534213 -1.1488884343817023 0.6506156575393289 0.03312675012901692 0.08195526694782469 0.8137350286286921 -0.24260841137232989
9000000000.0 0.8551626771598977 -0.4297174929016678 -1.142687602613243 0.6569047973482856 0.03388529555791412 0.08257736866917885 0.8118592143735037 -0.2443541491981219
9100000000.0 0.8512955068075546 -0.4332764156029071 -1.1364624539552164 0.6627014239370627 0.03457645670258896 0.08317410146869084 0.8102515983795261 -0.2465718257760717
9200000000.0 0.8478172049345839 -0.4373311181118428 -1.1311228146408414 0.6699242368443113 0.03535495374204538 0.08380927675082213 0.8082649517564466 -0.2490650627276761
9300000000.0 0.8443551335210661 -0.441447173912392 -1.1258737837519606 0.6770370298670287 0.03616520934973131 0.08450465465987102 0.8062900817612454 -0.25109942465467444
9400000000.0 0.8414076091065004 -0.4456007272491804 -1.1212125732590512 0.6831842414762351 0.036966765848627216 0.08528449881020597 0.804033548459118 -0.2527696182089394
9500000000.0 0.8386263677892137 -0.4492662700527888 -1.1153948628660013 0.6886147216152273 0.037657675565802795 0.08584481087962259 0.8025294781496589 -0.2544284693895885
9600000000.0 0.8371212720406759 -0.4526719642730436 -1.110662685824321 0.6930656748344972 0.038281736586504855 0.08647523845927783 0.8006395773057703 -0.2567592255621768
9700000000.0 0.8355230710811469 -0.4563025712547593 -1.10646324175202 0.6971589682681876 0.0388960351410833 0.08717475400766035 0.7990828422442429 -0.2589585819761516
9800000000.0 0.8328441338071538 -0.4603095724112514 -1.1017388431753568 0.702107532346166 0.03960249522103856 0.08789160299530492 0.7972955723429092 -0.2606803397830184
9900000000.0 0.8310066096950367 -0.4639928012222962 -1.096827396032372 0.7058362573140425 0.04021097965359244 0.08850781763577488 0.7954612579008808 -0.26221295381233584
10000000000.0 0.8285019878884256 -0.46709634570937675 -1.0912773644942575 0.7103720042003933 0.04085354968255437 0.08908905727353446 0.7935289134514601 -0.26446776287570467
10100000000.0 0.8266476359321941 -0.4706633054543105 -1.0871203684651982 0.7142064242064528 0.041451077101022735 0.08971716099147367 0.7919437683906405 -0.26655086044015097
10200000000.0 0.8243372110508069 -0.47428130493016946 -1.0825124590444772 0.718124011991656 0.042080167770502566 0.09032834501651155 0.7902141101718719 -0.268187365893823
10300000000.0 0.821748158438224 -0.47787465564141224 -1.077511626695221 0.7220569795727109 0.04273283833544981 0.09093930658997115 0.7882767832493702 -0.2698153441597067
10400000000.0 0.8187920216892236 -0.4812282694540059 -1.0718090317828761 0.7266781072363452 0.04344484491640066 0.09149643776332837 0.7864525203952133 -0.2718365274710746
10500000000.0 0.816196988370378 -0.4846265543157276 -1.0668271226274453 0.730783222455085 0.044098226947147066 0.09208176398753141 0.7844923441618931 -0.27380982239196733
10600000000.0 0.8135616470150022 -0.48824608947339765 -1.0620535348629303 0.7341227802094393 0.04472402852351513 0.09269271480565473 0.7827893125186225 -0.27555113187667835
10700000000.0 0.8100658143658416 -0.4917422121925847 -1.0564686977796223 0.7381838545328804 0.04539981575948033 0.09315612945716777 0.7806745844687221 -0.2771398462923978
10800000000.0 0.8065448682463785 -0.49502103727727664 -1.0506228789561982 0.7430761290514534 0.04616819085368991 0.09366475299692832 0.7787056045750034 -0.27902090346771447
10900000000.0 0.8022931042306636 -0.49801334276534576 -1.0439283598395914 0.7479178118308415 0.04694038349366515 0.09415007669172759 0.7765181914631644 -0.280775408178829
11000000000.0 0.7979489436080475 -0.501321109529207 -1.0376466529086206 0.7526792054849809 0.047692489637330665 0.09461141103121067 0.7747624235821008 -0.28240427983237226
11100000000.0 0.7936835306439295 -0.5047681502929432 -1.0313322587360598 0.7578957625177777 0.048473597947537694 0.0950386771841139 0.7727443614007908 -0.28405426650744914
11200000000.0 0.7892104703870053 -0.5080098184477414 -1.0250887396996249 0.7634846979111162 0.04937302200790082 0.09548633845836167 0.7705887608212937 -0.28586964462336384
11300000000.0 0.7844990429222801 -0.5110803239888891 -1.018547922744014 0.7695295957308074 0.050301377771653166 0.09599073086672247 0.7683814793887375 -0.28755780439754486
11400000000.0 0.7800611841278965 -0.5141120924616162 -1.0118376032300538 0.7744470738902173 0.051106867361673136 0.09637447143163733 0.7667385058936778 -0.28870585017172534
11500000000.0 0.7763752490588121 -0.5173523884142638 -1.0052655348240886 0.7790721025154912 0.05189204579124488 0.09679925950324342 0.7647067582797629 -0.2903174524099434
