!  2-Port S-parameters saved by WinCal
! VAR MeasName=S-Parameters (CALIBRATED_DATA) read from VNA (N5247A)
! VAR MeasDate=2020/12/15 16:21:03
! VAR NAME=PAD_OPEN
! VAR FILENAME=PAD_OPEN.S2P
! VAR DATE=2020/12/15 16:21:03
! VAR PHYS_PORTS=1,2
! VAR ObjTypeName=DATASET
! VAR IndexType=Frequency
!
# Hz S MA R 50
100000000.000 +1.0072892545E+000 -2.3305261063E-002  +5.3462269929E-005 +7.2723586426E+000  +1.5486127267E-005 +7.5160927383E+001  +1.0000112758E+000 -3.5255150216E-002 
200000000.000 +1.0098788848E+000 -1.3945265207E-001  +3.5440523546E-005 +6.6605397740E+001  +7.5254178182E-006 -2.4100501753E+001  +1.0003059561E+000 -1.0294890717E-001 
300000000.000 +1.0090288374E+000 -2.2519325793E-001  +4.3190295819E-005 +1.2367136974E+002  +1.2989973244E-005 +5.3495991462E+001  +1.0004239083E+000 -2.6682288163E-001 
400000000.000 +1.0065340137E+000 -3.9167024425E-001  +4.8341883430E-005 +8.2673878299E+001  +1.4102066215E-005 +1.0350219587E+002  +1.0011345299E+000 -4.4573043294E-001 
500000000.000 +1.0080222855E+000 -5.0681239129E-001  +1.9175479101E-005 +8.2834081536E+000  +2.6249154037E-005 +9.1717118272E+001  +1.0009611961E+000 -5.6072696528E-001 
600000000.000 +1.0083360092E+000 -5.7740465057E-001  +2.9634089569E-005 +5.5334076964E+001  +4.0925576521E-005 +9.6305444796E+001  +1.0006950067E+000 -6.5417348886E-001 
700000000.000 +1.0072825638E+000 -7.0109196439E-001  +3.5160086377E-005 +9.9299485916E+001  +4.2041585530E-005 +9.2956536540E+001  +1.0006633032E+000 -7.7967886996E-001 
800000000.000 +1.0064325178E+000 -8.6893078506E-001  +4.6898621326E-005 +1.0721031625E+002  +4.7642160187E-005 +7.9971946300E+001  +1.0006523411E+000 -9.2006029466E-001 
900000000.000 +1.0080389721E+000 -9.8941853972E-001  +2.7834766137E-005 +6.0411982401E+001  +4.4576698608E-005 +6.4618555179E+001  +1.0008193030E+000 -1.0600369489E+000 
1000000000.000 +1.0091082599E+000 -1.0770630828E+000  +1.2064761233E-005 +1.0377416461E+002  +4.1190319197E-005 +9.3442948496E+001  +1.0009701312E+000 -1.1644489265E+000 
1100000000.000 +1.0098288698E+000 -1.1614960922E+000  +7.5488919969E-005 +9.3029236233E+001  +4.5765103739E-005 +8.1897208360E+001  +1.0009173975E+000 -1.2617054682E+000 
1200000000.000 +1.0088884041E+000 -1.3014901327E+000  +3.8223657809E-005 +6.3318703749E+001  +5.4848724658E-005 +8.0161808217E+001  +1.0009303350E+000 -1.3757143004E+000 
1300000000.000 +1.0094083932E+000 -1.4408573257E+000  +4.2700115087E-005 +1.0263518801E+002  +5.6167431023E-005 +8.2822500167E+001  +1.0010401003E+000 -1.5167028214E+000 
1400000000.000 +1.0089322639E+000 -1.5435940811E+000  +8.7302519160E-005 +9.0659092052E+001  +6.9409018416E-005 +8.3356128272E+001  +1.0011013334E+000 -1.6446933282E+000 
1500000000.000 +1.0085285868E+000 -1.6417764877E+000  +5.7940963736E-005 +7.1204330651E+001  +7.2091016191E-005 +8.5892742905E+001  +1.0009882918E+000 -1.7504473875E+000 
1600000000.000 +1.0089746440E+000 -1.7440343192E+000  +8.3011694535E-005 +7.6820511217E+001  +7.7702828299E-005 +8.4394454162E+001  +1.0006569104E+000 -1.8648017573E+000 
1700000000.000 +1.0090940394E+000 -1.8733694691E+000  +1.0755494138E-004 +7.4124161611E+001  +7.7177199705E-005 +9.2128656815E+001  +1.0005929493E+000 -2.0067124474E+000 
1800000000.000 +1.0087799795E+000 -1.9902422138E+000  +7.4812259906E-005 +8.7955294028E+001  +8.1343903822E-005 +8.9878800764E+001  +1.0008961120E+000 -2.1303670847E+000 
1900000000.000 +1.0087552967E+000 -2.0845298259E+000  +1.1730112792E-004 +7.6504808763E+001  +8.8803593817E-005 +7.7774206334E+001  +1.0013317164E+000 -2.2217320385E+000 
2000000000.000 +1.0099998569E+000 -2.1968169160E+000  +8.6136750685E-005 +9.6840173294E+001  +9.1146462046E-005 +8.4496413058E+001  +1.0014082360E+000 -2.3111424155E+000 
2100000000.000 +1.0116048275E+000 -2.3227716913E+000  +1.1646107045E-004 +1.0271735357E+002  +9.9187026914E-005 +8.4871693718E+001  +1.0013948447E+000 -2.4476271539E+000 
2200000000.000 +1.0105292906E+000 -2.4514824960E+000  +7.4225589209E-005 +9.5184052451E+001  +1.2017777384E-004 +8.5263066694E+001  +1.0013503642E+000 -2.5934551937E+000 
2300000000.000 +1.0092991622E+000 -2.5472883269E+000  +1.0137098434E-004 +6.3423910321E+001  +1.1417242859E-004 +9.0884820019E+001  +1.0016795579E+000 -2.7017520910E+000 
2400000000.000 +1.0093956166E+000 -2.6778228470E+000  +1.2487588288E-004 +8.4754766154E+001  +9.4881531513E-005 +8.5804438492E+001  +1.0016173562E+000 -2.7997660282E+000 
2500000000.000 +1.0111623409E+000 -2.7883421232E+000  +8.3327732294E-005 +1.0524969532E+002  +1.3453812367E-004 +8.7798412892E+001  +1.0014104949E+000 -2.9305930165E+000 
2600000000.000 +1.0120672665E+000 -2.9098705515E+000  +1.3044162569E-004 +8.0753649152E+001  +1.2000727108E-004 +8.3841351900E+001  +1.0010161376E+000 -3.0811058426E+000 
2700000000.000 +1.0122245025E+000 -3.0375072351E+000  +1.3148959744E-004 +6.9317474268E+001  +1.2966561813E-004 +9.0797631055E+001  +1.0008902332E+000 -3.2002879528E+000 
2800000000.000 +1.0117461488E+000 -3.1471231378E+000  +1.1851099976E-004 +9.2770399848E+001  +1.3567376612E-004 +7.7812135828E+001  +1.0009609283E+000 -3.3029780615E+000 
2900000000.000 +1.0118827496E+000 -3.2471132935E+000  +1.1373012174E-004 +1.0350760621E+002  +1.2976005319E-004 +8.4416454111E+001  +1.0010956945E+000 -3.4154701786E+000 
3000000000.000 +1.0121077030E+000 -3.3620793924E+000  +1.4023028561E-004 +9.0833991280E+001  +1.2430192172E-004 +8.6437756718E+001  +1.0010787201E+000 -3.5531457548E+000 
3100000000.000 +1.0109813219E+000 -3.4980895624E+000  +1.3559980553E-004 +9.5215991435E+001  +1.4046336375E-004 +8.5549507240E+001  +1.0011451700E+000 -3.6625760053E+000 
3200000000.000 +1.0100391879E+000 -3.6222921732E+000  +1.2793293578E-004 +7.7645086439E+001  +1.4791496702E-004 +8.2345670406E+001  +1.0011690785E+000 -3.7679807276E+000 
3300000000.000 +1.0095206676E+000 -3.7345023826E+000  +1.7073661898E-004 +7.8800295020E+001  +1.5338235384E-004 +8.0427733988E+001  +1.0010681196E+000 -3.8885082226E+000 
3400000000.000 +1.0094878467E+000 -3.8498237069E+000  +1.5702173608E-004 +8.2871545064E+001  +1.5216143854E-004 +8.4544025112E+001  +1.0010138632E+000 -4.0393687093E+000 
3500000000.000 +1.0093863638E+000 -3.9756258842E+000  +1.7758931599E-004 +9.0451476265E+001  +1.6738804717E-004 +8.4108851126E+001  +1.0010093821E+000 -4.1587840490E+000 
3600000000.000 +1.0090459119E+000 -4.1316074548E+000  +1.7189855138E-004 +7.5298705728E+001  +1.6259680943E-004 +8.8540355260E+001  +1.0010648105E+000 -4.2718188235E+000 
3700000000.000 +1.0086733276E+000 -4.2681404975E+000  +1.6451913122E-004 +8.4133253122E+001  +1.8124555698E-004 +8.4238155454E+001  +1.0011770001E+000 -4.3932354158E+000 
3800000000.000 +1.0085882899E+000 -4.4001024192E+000  +1.8722694321E-004 +7.8222440340E+001  +1.7981407560E-004 +8.6420736241E+001  +1.0013867428E+000 -4.5211796782E+000 
3900000000.000 +1.0089558863E+000 -4.5151211289E+000  +1.8870441539E-004 +7.9381570445E+001  +1.7147895579E-004 +8.3475554263E+001  +1.0013079494E+000 -4.6243722980E+000 
4000000000.000 +1.0098630885E+000 -4.6468496934E+000  +1.8471632958E-004 +9.0083604491E+001  +1.8494325732E-004 +8.4558340912E+001  +1.0011078508E+000 -4.7351262748E+000 
4100000000.000 +1.0103787116E+000 -4.7725002820E+000  +1.8376639470E-004 +6.7879305968E+001  +1.8759237047E-004 +8.6757600691E+001  +1.0010191011E+000 -4.8711755047E+000 
4200000000.000 +1.0110903317E+000 -4.8852331800E+000  +2.1099307400E-004 +8.5111399859E+001  +1.9225801825E-004 +8.4033223911E+001  +1.0014979077E+000 -4.9901588850E+000 
4300000000.000 +1.0126641512E+000 -4.9667024748E+000  +1.8663558820E-004 +8.7752394729E+001  +2.0702274348E-004 +8.5149426961E+001  +1.0015784033E+000 -5.0945686753E+000 
4400000000.000 +1.0150033426E+000 -5.0285669983E+000  +2.0525863868E-004 +9.4738150872E+001  +2.0097778200E-004 +8.0172783019E+001  +1.0010042032E+000 -5.2082396136E+000 
4500000000.000 +1.0165629991E+000 -5.1127953444E+000  +2.0853387998E-004 +8.5477863569E+001  +2.0440052864E-004 +8.3488488697E+001  +1.0005600815E+000 -5.3559366552E+000 
4600000000.000 +1.0165725466E+000 -5.2233201970E+000  +1.8865308478E-004 +9.3764099826E+001  +2.0841188055E-004 +8.5335915980E+001  +1.0009927502E+000 -5.4810993889E+000 
4700000000.000 +1.0162991621E+000 -5.2990467810E+000  +2.1840445920E-004 +8.9351566300E+001  +2.0980588978E-004 +8.7066032541E+001  +1.0016067381E+000 -5.5814156590E+000 
4800000000.000 +1.0161169801E+000 -5.3796817400E+000  +2.2869655334E-004 +7.9268886641E+001  +2.1055571017E-004 +8.2073940262E+001  +1.0012181657E+000 -5.6880569844E+000 
4900000000.000 +1.0160912848E+000 -5.4819852311E+000  +2.7317335855E-004 +9.0102872338E+001  +2.4028006480E-004 +8.0897058273E+001  +1.0006404755E+000 -5.8367275011E+000 
5000000000.000 +1.0154077820E+000 -5.6206082605E+000  +2.5648113262E-004 +8.3467471366E+001  +2.3796618873E-004 +8.4803290745E+001  +1.0006326128E+000 -5.9602962103E+000 
5100000000.000 +1.0143238064E+000 -5.7445602350E+000  +2.2523543509E-004 +6.9486067706E+001  +2.3445081056E-004 +8.5033015741E+001  +1.0012397840E+000 -6.0363986374E+000 
5200000000.000 +1.0129922197E+000 -5.8841262835E+000  +2.6673565432E-004 +8.0751383855E+001  +2.4912774571E-004 +8.1926882986E+001  +1.0012048243E+000 -6.1303423670E+000 
5300000000.000 +1.0124238727E+000 -6.0194858475E+000  +2.1799729786E-004 +7.8315433627E+001  +2.5251111175E-004 +8.2341213488E+001  +1.0008880483E+000 -6.2764694282E+000 
5400000000.000 +1.0113610600E+000 -6.1868402237E+000  +2.9648000521E-004 +8.0140631616E+001  +2.5960177843E-004 +8.3353483921E+001  +1.0007782531E+000 -6.4332696817E+000 
5500000000.000 +1.0095873941E+000 -6.3639198147E+000  +2.4447809091E-004 +7.6632691266E+001  +2.6762586469E-004 +8.3595292312E+001  +1.0011811204E+000 -6.5019633471E+000 
5600000000.000 +1.0084373967E+000 -6.5354349032E+000  +2.3313605033E-004 +8.5377231862E+001  +2.5698974354E-004 +8.3251870035E+001  +1.0010978430E+000 -6.5745491089E+000 
5700000000.000 +1.0080773828E+000 -6.6685384514E+000  +2.4958257598E-004 +8.0825657539E+001  +2.7858784287E-004 +7.9201139832E+001  +1.0005985873E+000 -6.7082899449E+000 
5800000000.000 +1.0083717641E+000 -6.7960423081E+000  +2.7089087788E-004 +8.0553759374E+001  +2.7366236910E-004 +8.2877168639E+001  +1.0003959257E+000 -6.9007325793E+000 
5900000000.000 +1.0089134535E+000 -6.9368741205E+000  +2.8796320938E-004 +7.7775862964E+001  +2.8319852570E-004 +8.0667078658E+001  +1.0006286963E+000 -7.0131033268E+000 
6000000000.000 +1.0091616523E+000 -7.0640882818E+000  +2.7521657904E-004 +7.7233194995E+001  +2.8845814279E-004 +8.1457797363E+001  +1.0006985307E+000 -7.0928950548E+000 
6100000000.000 +1.0094501766E+000 -7.1805956653E+000  +2.5678846617E-004 +8.3195948570E+001  +2.8949857605E-004 +8.1329259190E+001  +1.0003197777E+000 -7.2118208335E+000 
6200000000.000 +1.0105573017E+000 -7.2609533944E+000  +3.3245938742E-004 +7.9597030016E+001  +2.8802777335E-004 +8.1451849319E+001  +1.0003013239E+000 -7.3844652408E+000 
6300000000.000 +1.0121637744E+000 -7.3456223745E+000  +3.1599111334E-004 +7.9185475716E+001  +2.9247135001E-004 +7.7667776281E+001  +1.0004580019E+000 -7.4979821273E+000 
6400000000.000 +1.0135167799E+000 -7.4355598329E+000  +3.1270961002E-004 +8.6760693723E+001  +2.9207041319E-004 +8.0324642799E+001  +1.0005482453E+000 -7.5803209200E+000 
6500000000.000 +1.0141809131E+000 -7.5118946188E+000  +2.9014008841E-004 +8.3652129202E+001  +3.0601782680E-004 +7.8563805962E+001  +1.0002127199E+000 -7.7024424756E+000 
6600000000.000 +1.0155549648E+000 -7.5563392772E+000  +3.1614253189E-004 +8.2100306308E+001  +3.1391648566E-004 +8.3401045457E+001  +1.0004538343E+000 -7.8476733469E+000 
6700000000.000 +1.0180833857E+000 -7.5966255177E+000  +3.0017104180E-004 +8.0170914602E+001  +3.1046531108E-004 +8.0093707270E+001  +1.0005270011E+000 -7.9726530287E+000 
6800000000.000 +1.0199394932E+000 -7.6589573337E+000  +3.0739255610E-004 +7.9468007746E+001  +3.0403627595E-004 +8.3390711723E+001  +1.0005720837E+000 -8.0565960715E+000 
6900000000.000 +1.0206184583E+000 -7.7550068183E+000  +3.2746492076E-004 +7.9562644115E+001  +3.3327294125E-004 +8.0930122142E+001  +1.0004965606E+000 -8.1822556483E+000 
7000000000.000 +1.0196883121E+000 -7.8409927163E+000  +3.5266030490E-004 +7.8004631558E+001  +3.3528710435E-004 +8.2146539107E+001  +1.0006476922E+000 -8.3123215814E+000 
7100000000.000 +1.0192886511E+000 -7.9260855281E+000  +3.1639805224E-004 +8.5829171819E+001  +3.3085714100E-004 +8.1246471089E+001  +1.0006088080E+000 -8.4324863677E+000 
7200000000.000 +1.0187712962E+000 -8.0680812732E+000  +2.9509872832E-004 +8.2121669004E+001  +3.4015494644E-004 +8.0470045278E+001  +1.0004229801E+000 -8.5335201619E+000 
7300000000.000 +1.0165637607E+000 -8.2541442177E+000  +2.9198068948E-004 +8.1901433303E+001  +3.3461122711E-004 +8.0268939825E+001  +1.0004548004E+000 -8.6849108117E+000 
7400000000.000 +1.0132619905E+000 -8.4641729394E+000  +3.7967444956E-004 +8.0769374184E+001  +3.3996092947E-004 +8.1583427426E+001  +1.0007529906E+000 -8.8063190061E+000 
7500000000.000 +1.0109803847E+000 -8.6479918985E+000  +3.5809564705E-004 +8.1296808432E+001  +3.5892603615E-004 +7.9410913565E+001  +1.0010334761E+000 -8.9011721069E+000 
7600000000.000 +1.0097271036E+000 -8.8179043091E+000  +3.3484960763E-004 +7.6714975325E+001  +3.6550753168E-004 +8.0842161708E+001  +1.0003181344E+000 -9.0039128014E+000 
7700000000.000 +1.0089908587E+000 -9.0190653531E+000  +3.3961515648E-004 +8.0291481356E+001  +3.6150786719E-004 +7.7776809720E+001  +9.9998075808E-001 -9.1676177874E+000 
7800000000.000 +1.0077568029E+000 -9.2102921307E+000  +3.7139103922E-004 +7.7370248022E+001  +3.6851323473E-004 +7.8889036112E+001  +1.0001895790E+000 -9.3094674824E+000 
7900000000.000 +1.0071560211E+000 -9.3589337629E+000  +3.7696585589E-004 +8.1300472390E+001  +3.6400735051E-004 +7.9423200955E+001  +1.0012260132E+000 -9.3712857111E+000 
8000000000.000 +1.0071745673E+000 -9.4622692513E+000  +3.7873612950E-004 +7.7749181143E+001  +3.8082392582E-004 +7.9666869551E+001  +1.0008820987E+000 -9.4481510977E+000 
8100000000.000 +1.0081322871E+000 -9.5626736676E+000  +3.8728978579E-004 +8.1251577010E+001  +3.7913536008E-004 +7.8051179365E+001  +9.9993991251E-001 -9.6039620432E+000 
8200000000.000 +1.0091433681E+000 -9.6791530825E+000  +3.7239572888E-004 +7.7292017535E+001  +3.8221851664E-004 +7.9761803175E+001  +9.9961931443E-001 -9.7964569979E+000 
8300000000.000 +1.0103493818E+000 -9.7815997033E+000  +3.9486381814E-004 +7.8677210651E+001  +3.9542150493E-004 +7.8419227268E+001  +1.0003242821E+000 -9.8854836779E+000 
8400000000.000 +1.0115765277E+000 -9.8510010483E+000  +3.9772005182E-004 +8.3600486402E+001  +3.8787247940E-004 +7.8569936924E+001  +1.0007983020E+000 -9.9462726545E+000 
8500000000.000 +1.0128854665E+000 -9.8956279038E+000  +4.1282278190E-004 +8.1609562382E+001  +4.0472327871E-004 +7.9052591962E+001  +1.0001686685E+000 -1.0081943177E+001 
8600000000.000 +1.0152683907E+000 -9.9248285388E+000  +4.1480752870E-004 +7.8383941884E+001  +4.0571632591E-004 +7.8281643031E+001  +9.9946616658E-001 -1.0268629299E+001 
8700000000.000 +1.0181676505E+000 -1.0003791981E+001  +4.0930021264E-004 +8.5216449160E+001  +4.0102417373E-004 +7.9686305694E+001  +9.9972032572E-001 -1.0368671816E+001 
8800000000.000 +1.0200481387E+000 -1.0057223613E+001  +3.6809507129E-004 +7.8646779814E+001  +3.9797952554E-004 +7.8719131455E+001  +1.0004393561E+000 -1.0438092883E+001 
8900000000.000 +1.0203282433E+000 -1.0083125841E+001  +3.6916426690E-004 +7.6411336723E+001  +4.1809002588E-004 +7.6804496808E+001  +1.0001003965E+000 -1.0557690440E+001 
9000000000.000 +1.0223449209E+000 -1.0079531676E+001  +3.7131861710E-004 +7.3016801541E+001  +4.2314506685E-004 +7.9435745920E+001  +9.9979225748E-001 -1.0739929760E+001 
9100000000.000 +1.0247519216E+000 -1.0171460084E+001  +4.4351126735E-004 +8.0159172841E+001  +4.2017703774E-004 +7.6719804530E+001  +9.9975957655E-001 -1.0836584055E+001 
9200000000.000 +1.0234310874E+000 -1.0319079677E+001  +4.6650867582E-004 +8.0877979549E+001  +4.4618737617E-004 +7.8245447133E+001  +9.9998163168E-001 -1.0894938587E+001 
9300000000.000 +1.0204426555E+000 -1.0449187322E+001  +4.1693393420E-004 +8.1131619065E+001  +4.5426697852E-004 +7.7976743695E+001  +9.9965712157E-001 -1.1019434665E+001 
9400000000.000 +1.0169379406E+000 -1.0642740953E+001  +4.4702429939E-004 +7.8709996183E+001  +4.3953988894E-004 +7.7092947255E+001  +9.9968078851E-001 -1.1203043043E+001 
9500000000.000 +1.0145240457E+000 -1.0830341398E+001  +4.4912587392E-004 +7.7117372065E+001  +4.5743327731E-004 +7.5491644814E+001  +9.9958848532E-001 -1.1308500451E+001 
9600000000.000 +1.0119133543E+000 -1.1120540494E+001  +4.4671175203E-004 +7.7988736100E+001  +4.5828865965E-004 +7.6748187404E+001  +9.9938327277E-001 -1.1371982881E+001 
9700000000.000 +1.0101599009E+000 -1.1341221334E+001  +4.5059407778E-004 +7.2828493460E+001  +4.6807410685E-004 +7.7119361851E+001  +9.9899050289E-001 -1.1514735121E+001 
9800000000.000 +1.0080308547E+000 -1.1470734447E+001  +4.4917942530E-004 +7.5029944349E+001  +4.6931345355E-004 +7.6520791885E+001  +9.9896224526E-001 -1.1692760783E+001 
9900000000.000 +1.0064227516E+000 -1.1660806660E+001  +4.3412620620E-004 +7.4382502889E+001  +4.5870310048E-004 +7.7262164548E+001  +9.9924000490E-001 -1.1803500279E+001 
10000000000.000 +1.0073894393E+000 -1.1782397233E+001  +4.9044839875E-004 +8.2076085625E+001  +4.6142954066E-004 +7.6073385196E+001  +9.9882902086E-001 -1.1863816139E+001 
10100000000.000 +1.0072919703E+000 -1.1941843828E+001  +5.0507481273E-004 +7.9974468644E+001  +4.7632972805E-004 +7.5521938092E+001  +9.9833630526E-001 -1.2002078818E+001 
10200000000.000 +1.0071120303E+000 -1.2062212944E+001  +4.7427199545E-004 +7.6034151771E+001  +4.8178199334E-004 +7.7148110494E+001  +9.9847477682E-001 -1.2167286973E+001 
10300000000.000 +1.0073475480E+000 -1.2164833081E+001  +4.9705327704E-004 +7.2562261091E+001  +5.0295843778E-004 +7.6014049687E+001  +9.9887981929E-001 -1.2301195991E+001 
10400000000.000 +1.0081860044E+000 -1.2224744887E+001  +4.6424901263E-004 +7.4654965296E+001  +4.8570780421E-004 +7.5878955660E+001  +9.9856717559E-001 -1.2369778790E+001 
10500000000.000 +1.0101002048E+000 -1.2289906236E+001  +4.9543848022E-004 +7.6698758704E+001  +5.0217347767E-004 +7.7070121113E+001  +9.9807063238E-001 -1.2493387875E+001 
10600000000.000 +1.0127209996E+000 -1.2361325548E+001  +4.8451168239E-004 +7.9124766129E+001  +4.9444974012E-004 +7.6786753481E+001  +9.9782840693E-001 -1.2650036946E+001 
10700000000.000 +1.0149922076E+000 -1.2423179758E+001  +5.5249328042E-004 +7.8221225914E+001  +5.1187749183E-004 +7.6567967000E+001  +9.9866632151E-001 -1.2769603085E+001 
10800000000.000 +1.0168473234E+000 -1.2454596738E+001  +4.8278231437E-004 +7.5445549886E+001  +5.2283029844E-004 +7.5284699606E+001  +9.9853184230E-001 -1.2859603861E+001 
10900000000.000 +1.0202901209E+000 -1.2409185228E+001  +5.4214633839E-004 +7.5038928577E+001  +5.2008010188E-004 +7.5317737831E+001  +9.9829109701E-001 -1.2984726404E+001 
11000000000.000 +1.0241869890E+000 -1.2411267626E+001  +5.5732387438E-004 +7.1060173971E+001  +5.3374219374E-004 +7.6862296938E+001  +9.9778081445E-001 -1.3138066148E+001 
11100000000.000 +1.0250896091E+000 -1.2500692201E+001  +4.8942053834E-004 +7.5563619452E+001  +5.4195862696E-004 +7.6370944775E+001  +9.9824683560E-001 -1.3250326179E+001 
11200000000.000 +1.0251679174E+000 -1.2597263316E+001  +5.6394361853E-004 +7.2682098751E+001  +5.4447606193E-004 +7.5800412508E+001  +9.9834316280E-001 -1.3323705137E+001 
11300000000.000 +1.0242914578E+000 -1.2663901875E+001  +5.6541535894E-004 +7.0330771736E+001  +5.4714137036E-004 +7.5924074521E+001  +9.9785839574E-001 -1.3474831037E+001 
11400000000.000 +1.0247793283E+000 -1.2749970366E+001  +5.8933131479E-004 +7.5321293731E+001  +5.6646461164E-004 +7.5364786583E+001  +9.9761841583E-001 -1.3647620125E+001 
11500000000.000 +1.0231609019E+000 -1.2980731360E+001  +5.5543845275E-004 +7.3580568304E+001  +5.6992479564E-004 +7.4702753560E+001  +9.9786056333E-001 -1.3720286116E+001 
