!  2-Port S-parameters saved by WinCal
! VAR MeasName=S-Parameters (CALIBRATED_DATA) read from VNA (N5247A)
! VAR MeasDate=2020/12/15 16:21:48
! VAR NAME=PAD_SHORT
! VAR FILENAME=PAD_SHORT.S2P
! VAR DATE=2020/12/15 16:21:48
! VAR PHYS_PORTS=1,2
! VAR ObjTypeName=DATASET
! VAR IndexType=Frequency
!
# Hz S MA R 50
100000000.000 +9.9654440019E-001 +1.7997450187E+002  +9.2137436598E-006 -1.0182880781E+002  +8.1785733526E-006 +3.4619401558E+001  +9.8101418793E-001 -1.7991542746E+002 
200000000.000 +9.9518598871E-001 +1.7997745286E+002  +2.7690908932E-005 +2.8980011972E+001  +1.3774048004E-005 +5.7815419436E+001  +9.8264428359E-001 +1.7988997404E+002 
300000000.000 +9.9621481888E-001 +1.7997061100E+002  +5.2706578243E-005 +1.4064058121E+002  +1.9798773753E-005 +1.0773762409E+002  +9.8195727452E-001 +1.7988480421E+002 
400000000.000 +9.9743468517E-001 +1.7994700180E+002  +1.5127549901E-005 -2.5475329402E+001  +2.0661333898E-005 +4.3247838590E+001  +9.8161612303E-001 +1.7987415385E+002 
500000000.000 +9.9808895454E-001 +1.7991373920E+002  +5.7882572611E-005 +9.2875738022E+001  +8.5216685275E-006 +6.7574553677E+001  +9.8121655318E-001 +1.7982355998E+002 
600000000.000 +9.9789951747E-001 +1.7989381567E+002  +4.2319843881E-005 +1.0506622293E+002  +2.0929157287E-005 +1.0713364557E+002  +9.8119120711E-001 +1.7976385208E+002 
700000000.000 +9.9917951280E-001 +1.7990004542E+002  +4.0515987428E-006 -1.0243040703E+001  +1.5732553756E-005 +1.0361519981E+002  +9.8118045891E-001 +1.7973169110E+002 
800000000.000 +9.9864729291E-001 +1.7988066431E+002  +4.5416943959E-005 +1.0974670120E+002  +4.3737687033E-005 +9.7330041278E+001  +9.8104317088E-001 +1.7971741580E+002 
900000000.000 +9.9871831462E-001 +1.7987342391E+002  +3.5426885982E-005 +9.4140814787E+001  +3.8844589207E-005 +1.0578050270E+002  +9.8066720878E-001 +1.7971218324E+002 
1000000000.000 +9.9804808975E-001 +1.7983745701E+002  +5.6132136084E-005 +6.1610325854E+001  +4.7181196502E-005 +8.9205917171E+001  +9.8033720863E-001 +1.7967407727E+002 
1100000000.000 +9.9685859718E-001 +1.7983422092E+002  +4.7921321104E-005 +8.8380386126E+001  +3.9900344865E-005 +7.2262194562E+001  +9.8005296837E-001 +1.7963735891E+002 
1200000000.000 +9.9687400496E-001 +1.7981465681E+002  +4.2958514318E-005 +3.8671903896E+001  +5.1310961546E-005 +8.4526487970E+001  +9.7973955205E-001 +1.7960425512E+002 
1300000000.000 +9.9770404782E-001 +1.7978548752E+002  +5.8785596376E-005 +7.8462555449E+001  +4.8058115160E-005 +9.4210117328E+001  +9.7959414160E-001 +1.7959503708E+002 
1400000000.000 +9.9857240248E-001 +1.7979153621E+002  +5.4907481968E-005 +5.7099344478E+001  +4.4149855123E-005 +9.5867674351E+001  +9.7938543025E-001 +1.7958794938E+002 
1500000000.000 +9.9876516757E-001 +1.7977435076E+002  +6.2250101924E-005 +1.0018683043E+002  +5.3380359517E-005 +9.3830589482E+001  +9.7929186962E-001 +1.7956329952E+002 
1600000000.000 +9.9740921792E-001 +1.7972776425E+002  +5.2987024169E-005 +1.0075487079E+002  +4.9029170531E-005 +9.2985992612E+001  +9.7937454130E-001 +1.7953452757E+002 
1700000000.000 +9.9834791073E-001 +1.7970597627E+002  +5.5511210656E-005 +7.6083598999E+001  +5.6408612513E-005 +9.8980968061E+001  +9.7940359505E-001 +1.7953263217E+002 
1800000000.000 +9.9917674230E-001 +1.7972220744E+002  +8.0014725311E-005 +9.7466117222E+001  +6.8469198297E-005 +9.3914318783E+001  +9.7901360417E-001 +1.7951862029E+002 
1900000000.000 +9.9925787016E-001 +1.7969590271E+002  +3.0374063848E-005 +1.0245141854E+002  +8.5839614747E-005 +8.7748737010E+001  +9.7853573563E-001 +1.7948297787E+002 
2000000000.000 +9.9742972484E-001 +1.7963803177E+002  +8.0225995510E-005 +9.7991216059E+001  +8.5369510249E-005 +9.1465561191E+001  +9.7842167327E-001 +1.7944046358E+002 
2100000000.000 +9.9694295000E-001 +1.7961930155E+002  +6.9307826632E-005 +1.0036387357E+002  +7.1282813744E-005 +7.4335352237E+001  +9.7856192955E-001 +1.7943548344E+002 
2200000000.000 +9.9804326576E-001 +1.7962719694E+002  +4.7019290806E-005 +1.0778814112E+002  +7.7774485300E-005 +8.3868616419E+001  +9.7861942128E-001 +1.7943743331E+002 
2300000000.000 +9.9886991191E-001 +1.7960897410E+002  +7.9399517222E-005 +1.0306980569E+002  +7.0939013771E-005 +9.1552468964E+001  +9.7821284026E-001 +1.7940628333E+002 
2400000000.000 +9.9880736074E-001 +1.7958534429E+002  +5.9432792200E-005 +7.5011727512E+001  +8.1935296660E-005 +8.6144928336E+001  +9.7808707683E-001 +1.7937536279E+002 
2500000000.000 +9.9801461502E-001 +1.7956400955E+002  +7.3545665648E-005 +1.2014722879E+002  +7.9105739935E-005 +8.5988612066E+001  +9.7815619937E-001 +1.7936468864E+002 
2600000000.000 +9.9730768651E-001 +1.7955287838E+002  +8.8942562644E-005 +1.2666478646E+002  +8.4915078218E-005 +1.0780940677E+002  +9.7847878732E-001 +1.7937108072E+002 
2700000000.000 +9.9696315526E-001 +1.7954207839E+002  +1.1759983077E-004 +1.0281176654E+002  +9.6892190998E-005 +9.2043190872E+001  +9.7831547161E-001 +1.7935099014E+002 
2800000000.000 +9.9744175182E-001 +1.7950452186E+002  +7.8144720729E-005 +1.2387898714E+002  +9.0002753190E-005 +1.0828723889E+002  +9.7821360999E-001 +1.7931905736E+002 
2900000000.000 +9.9781715727E-001 +1.7946420063E+002  +1.0926915253E-004 +1.0817215781E+002  +9.6361121296E-005 +1.0065943861E+002  +9.7814040825E-001 +1.7929794868E+002 
3000000000.000 +9.9775044272E-001 +1.7944416419E+002  +1.3525790795E-004 +1.1451944959E+002  +1.2102604742E-004 +1.0501203898E+002  +9.7805658694E-001 +1.7929686170E+002 
3100000000.000 +9.9881477080E-001 +1.7944606294E+002  +1.4563822145E-004 +8.4942576939E+001  +1.1827559957E-004 +9.7956996476E+001  +9.7796473481E-001 +1.7926920767E+002 
3200000000.000 +9.9971939320E-001 +1.7942276052E+002  +1.2076989715E-004 +7.4400313553E+001  +1.1255372167E-004 +9.3634499059E+001  +9.7801118333E-001 +1.7923569525E+002 
3300000000.000 +1.0007111872E+000 +1.7939701520E+002  +1.3458488372E-004 +8.3657179051E+001  +1.3758426365E-004 +8.9018007947E+001  +9.7820019838E-001 +1.7922069793E+002 
3400000000.000 +1.0007965678E+000 +1.7937649267E+002  +1.4549745353E-004 +8.8493526753E+001  +1.2031856462E-004 +9.1430345916E+001  +9.7817247614E-001 +1.7922974997E+002 
3500000000.000 +1.0009536520E+000 +1.7936368185E+002  +1.3000257345E-004 +8.9763941506E+001  +1.0585986214E-004 +9.4656452656E+001  +9.7813929762E-001 +1.7920737356E+002 
3600000000.000 +1.0013372033E+000 +1.7937780357E+002  +1.2455890535E-004 +9.9411532678E+001  +1.2907088463E-004 +9.0463046151E+001  +9.7798370668E-001 +1.7918059707E+002 
3700000000.000 +1.0023854014E+000 +1.7938069359E+002  +1.3093650046E-004 +9.9049560297E+001  +1.3858716766E-004 +9.2238518310E+001  +9.7792923902E-001 +1.7916792909E+002 
3800000000.000 +1.0031072357E+000 +1.7937328506E+002  +1.3244128947E-004 +9.9527853577E+001  +1.2930272898E-004 +9.2250720623E+001  +9.7770282497E-001 +1.7915461317E+002 
3900000000.000 +1.0024577855E+000 +1.7934089390E+002  +1.0245841391E-004 +8.1851987608E+001  +1.3359388371E-004 +9.0803970846E+001  +9.7780694499E-001 +1.7912240472E+002 
4000000000.000 +1.0019492804E+000 +1.7934587153E+002  +1.4552346568E-004 +1.0626183255E+002  +1.2374477441E-004 +9.6265834470E+001  +9.7798782694E-001 +1.7909185251E+002 
4100000000.000 +1.0019440932E+000 +1.7934617663E+002  +1.3337762781E-004 +1.0377250784E+002  +1.1791909621E-004 +9.4296865445E+001  +9.7791573825E-001 +1.7908817934E+002 
4200000000.000 +1.0015015837E+000 +1.7932199845E+002  +1.0247896771E-004 +8.7719805809E+001  +1.3338653712E-004 +9.2499683659E+001  +9.7746768880E-001 +1.7906928970E+002 
4300000000.000 +9.9996139668E-001 +1.7926447562E+002  +1.1376629686E-004 +9.0670233025E+001  +1.2706864742E-004 +9.8095790652E+001  +9.7731445454E-001 +1.7903330707E+002 
4400000000.000 +9.9789576401E-001 +1.7920569615E+002  +1.2998120447E-004 +9.7627762188E+001  +1.3537676222E-004 +1.0156633317E+002  +9.7767380383E-001 +1.7900072436E+002 
4500000000.000 +9.9675910978E-001 +1.7917420580E+002  +1.2125405774E-004 +8.7706316524E+001  +1.1686970002E-004 +1.0163543926E+002  +9.7813700117E-001 +1.7900393673E+002 
4600000000.000 +9.9660271364E-001 +1.7913215075E+002  +1.2925167561E-004 +1.0644975309E+002  +1.3872847386E-004 +1.0574558953E+002  +9.7776617402E-001 +1.7899066531E+002 
4700000000.000 +9.9621280023E-001 +1.7906690947E+002  +1.2441575716E-004 +1.0775204455E+002  +1.4979180861E-004 +1.0671974054E+002  +9.7716339937E-001 +1.7895122215E+002 
4800000000.000 +9.9623115727E-001 +1.7900616884E+002  +1.3491230207E-004 +9.9179637742E+001  +1.4067925465E-004 +1.0797638117E+002  +9.7731018475E-001 +1.7892236423E+002 
4900000000.000 +9.9630221607E-001 +1.7896550148E+002  +1.2908146901E-004 +1.2748778788E+002  +1.4820434998E-004 +1.0990102957E+002  +9.7767545831E-001 +1.7892065878E+002 
5000000000.000 +9.9675581687E-001 +1.7895419256E+002  +1.3198430716E-004 +9.4869714203E+001  +1.4698698370E-004 +1.0878821740E+002  +9.7762798081E-001 +1.7891241913E+002 
5100000000.000 +9.9761223727E-001 +1.7893634734E+002  +1.4396746455E-004 +1.0557923742E+002  +1.6107944999E-004 +1.1095754745E+002  +9.7710982132E-001 +1.7886603066E+002 
5200000000.000 +9.9902680720E-001 +1.7893075359E+002  +1.7870028786E-004 +1.1512548499E+002  +1.6527158374E-004 +1.1307867530E+002  +9.7706789147E-001 +1.7882565601E+002 
5300000000.000 +9.9955846466E-001 +1.7892160545E+002  +2.2058643708E-004 +1.1745109668E+002  +1.7580006287E-004 +1.0942699071E+002  +9.7727752669E-001 +1.7882849727E+002 
5400000000.000 +1.0006901430E+000 +1.7893822590E+002  +1.9710937453E-004 +1.1021302406E+002  +1.9131665157E-004 +1.1869919834E+002  +9.7739087567E-001 +1.7884185534E+002 
5500000000.000 +1.0023492006E+000 +1.7898147103E+002  +1.8515308923E-004 +1.0470315168E+002  +2.0852612923E-004 +1.1644796304E+002  +9.7697966604E-001 +1.7879051212E+002 
5600000000.000 +1.0038263126E+000 +1.7900589560E+002  +2.1223786553E-004 +1.0258295339E+002  +2.1344891933E-004 +1.1025108905E+002  +9.7705406282E-001 +1.7873468893E+002 
5700000000.000 +1.0043367474E+000 +1.7899645729E+002  +2.3943196224E-004 +1.0746743665E+002  +2.1356523630E-004 +1.1079597546E+002  +9.7734568635E-001 +1.7872720451E+002 
5800000000.000 +1.0038979330E+000 +1.7899005914E+002  +2.1231534123E-004 +1.1021132546E+002  +2.2338271846E-004 +1.0756512534E+002  +9.7758895891E-001 +1.7876984217E+002 
5900000000.000 +1.0034074102E+000 +1.7900177644E+002  +2.1302752054E-004 +1.0399397601E+002  +2.1570652845E-004 +1.0234127900E+002  +9.7738567773E-001 +1.7874498140E+002 
6000000000.000 +1.0038523324E+000 +1.7901170243E+002  +2.0669352732E-004 +9.9337947390E+001  +2.1353184242E-004 +1.0901382515E+002  +9.7723251649E-001 +1.7869292909E+002 
6100000000.000 +1.0040990903E+000 +1.7898999445E+002  +1.9127753985E-004 +1.0403762311E+002  +2.2672790479E-004 +1.0810008582E+002  +9.7748778974E-001 +1.7867442626E+002 
6200000000.000 +1.0028695952E+000 +1.7894692406E+002  +2.3653991180E-004 +1.1718513102E+002  +2.0886275314E-004 +1.0693109040E+002  +9.7737919202E-001 +1.7870367024E+002 
6300000000.000 +1.0015888825E+000 +1.7891281380E+002  +2.3015495142E-004 +1.1004556509E+002  +2.3308086530E-004 +1.0848983990E+002  +9.7732716302E-001 +1.7867565758E+002 
6400000000.000 +1.0010215937E+000 +1.7887461332E+002  +2.4538422557E-004 +1.0262052434E+002  +2.4519011344E-004 +1.0864195583E+002  +9.7718212843E-001 +1.7862267773E+002 
6500000000.000 +1.0005580966E+000 +1.7881711551E+002  +2.1733341547E-004 +1.0577870873E+002  +2.4250312015E-004 +1.0538797613E+002  +9.7741921718E-001 +1.7861001099E+002 
6600000000.000 +9.9925834926E-001 +1.7873635014E+002  +2.5811805259E-004 +1.1014312048E+002  +2.2927651389E-004 +1.0535883443E+002  +9.7726641635E-001 +1.7862054104E+002 
6700000000.000 +9.9726768720E-001 +1.7866766330E+002  +2.6086462880E-004 +1.0788034408E+002  +2.4378261482E-004 +1.0484165910E+002  +9.7717170084E-001 +1.7860604211E+002 
6800000000.000 +9.9589486517E-001 +1.7859332730E+002  +2.3712442817E-004 +1.0345651726E+002  +2.4533024053E-004 +1.0509205326E+002  +9.7711853016E-001 +1.7855327742E+002 
6900000000.000 +9.9539628292E-001 +1.7853503941E+002  +2.5308803838E-004 +1.0973727612E+002  +2.3124061140E-004 +1.0527447073E+002  +9.7724330679E-001 +1.7853379007E+002 
7000000000.000 +9.9546852356E-001 +1.7847964616E+002  +2.3895904853E-004 +1.1135697156E+002  +2.3045235227E-004 +1.0380129230E+002  +9.7707008847E-001 +1.7852985712E+002 
7100000000.000 +9.9571188536E-001 +1.7843587241E+002  +2.2658668285E-004 +1.0822343208E+002  +2.3334385164E-004 +1.0542740585E+002  +9.7709571825E-001 +1.7852037132E+002 
7200000000.000 +9.9647659299E-001 +1.7842089178E+002  +2.1303260282E-004 +1.0939039144E+002  +2.3954089135E-004 +1.0934561265E+002  +9.7732402634E-001 +1.7847740675E+002 
7300000000.000 +9.9813794947E-001 +1.7844663469E+002  +2.4129049319E-004 +1.0066712063E+002  +2.4060304535E-004 +1.0847933417E+002  +9.7749441844E-001 +1.7848496018E+002 
7400000000.000 +1.0004981825E+000 +1.7849737894E+002  +2.3332624802E-004 +1.0405243810E+002  +2.4330265380E-004 +1.0668366333E+002  +9.7719996106E-001 +1.7847107189E+002 
7500000000.000 +1.0025002460E+000 +1.7853054699E+002  +2.3764419280E-004 +1.1035445917E+002  +2.3924991003E-004 +1.1032816314E+002  +9.7681605670E-001 +1.7842048549E+002 
7600000000.000 +1.0041282037E+000 +1.7856169707E+002  +2.8228275648E-004 +1.0887950616E+002  +2.3335823606E-004 +1.0967563479E+002  +9.7733182603E-001 +1.7838031761E+002 
7700000000.000 +1.0044658830E+000 +1.7861025892E+002  +2.3235883664E-004 +1.0657713974E+002  +2.4411679994E-004 +1.1127766346E+002  +9.7765636652E-001 +1.7840225292E+002 
7800000000.000 +1.0060571705E+000 +1.7868778795E+002  +2.7125744878E-004 +1.1855144400E+002  +2.4352115852E-004 +1.0970906632E+002  +9.7752170035E-001 +1.7841400468E+002 
7900000000.000 +1.0073698386E+000 +1.7870971179E+002  +2.9726714457E-004 +1.0721707504E+002  +2.6461861284E-004 +1.1383405602E+002  +9.7672587347E-001 +1.7834945511E+002 
8000000000.000 +1.0076994669E+000 +1.7865044382E+002  +2.5741980876E-004 +1.0871655391E+002  +2.6220030007E-004 +1.1397562240E+002  +9.7676847638E-001 +1.7827764400E+002 
8100000000.000 +1.0061615112E+000 +1.7863574592E+002  +2.6100715252E-004 +1.0354958594E+002  +2.6076170067E-004 +1.0875361030E+002  +9.7743720259E-001 +1.7828939059E+002 
8200000000.000 +1.0057995735E+000 +1.7866203838E+002  +2.6797803283E-004 +1.1295312091E+002  +2.5543696667E-004 +1.0911449577E+002  +9.7784254865E-001 +1.7833774397E+002 
8300000000.000 +1.0056844789E+000 +1.7864476211E+002  +2.8819457465E-004 +1.1724299470E+002  +2.6928295341E-004 +1.1375573412E+002  +9.7714364450E-001 +1.7829994773E+002 
8400000000.000 +1.0049232630E+000 +1.7857165845E+002  +2.3747216472E-004 +1.0872281238E+002  +2.6479338193E-004 +1.1509768272E+002  +9.7667551501E-001 +1.7822323476E+002 
8500000000.000 +1.0034727167E+000 +1.7848816117E+002  +3.0879130380E-004 +1.1244514414E+002  +2.5146988304E-004 +1.1450362489E+002  +9.7710828660E-001 +1.7820437310E+002 
8600000000.000 +1.0012283637E+000 +1.7843966783E+002  +2.4994097703E-004 +1.2019963867E+002  +2.4717393113E-004 +1.1838898683E+002  +9.7759867321E-001 +1.7824687465E+002 
8700000000.000 +9.9986061018E-001 +1.7840279707E+002  +2.8683300971E-004 +1.2225454945E+002  +2.6078529055E-004 +1.1633592686E+002  +9.7733303135E-001 +1.7822549130E+002 
8800000000.000 +9.9852221686E-001 +1.7830930570E+002  +2.2694235267E-004 +1.1523812350E+002  +2.5565800599E-004 +1.1634147691E+002  +9.7672583921E-001 +1.7815042291E+002 
8900000000.000 +9.9730334765E-001 +1.7819124948E+002  +2.4352650165E-004 +1.1958226891E+002  +2.5422599139E-004 +1.2105364609E+002  +9.7688494907E-001 +1.7812417721E+002 
9000000000.000 +9.9544765646E-001 +1.7809014443E+002  +2.7530011194E-004 +1.2333996929E+002  +2.6661779806E-004 +1.1792127501E+002  +9.7707490595E-001 +1.7815809329E+002 
9100000000.000 +9.9433646843E-001 +1.7804193375E+002  +2.8612438201E-004 +1.1800428363E+002  +2.5801305322E-004 +1.2167581800E+002  +9.7705410506E-001 +1.7813204787E+002 
9200000000.000 +9.9472076581E-001 +1.7799676845E+002  +2.4561362721E-004 +1.2212905701E+002  +2.5710827351E-004 +1.2309147865E+002  +9.7687504573E-001 +1.7805363320E+002 
9300000000.000 +9.9610785009E-001 +1.7797024775E+002  +2.6331345891E-004 +1.2442315873E+002  +2.6872506059E-004 +1.2584489622E+002  +9.7696797142E-001 +1.7803029323E+002 
9400000000.000 +9.9852913089E-001 +1.7799914591E+002  +2.5298742476E-004 +1.3225170149E+002  +2.7507809220E-004 +1.2700082994E+002  +9.7689205178E-001 +1.7806393798E+002 
9500000000.000 +1.0011125353E+000 +1.7803136350E+002  +2.8108375531E-004 +1.2797293616E+002  +2.8069831583E-004 +1.2728284140E+002  +9.7688129760E-001 +1.7804738216E+002 
9600000000.000 +1.0022951715E+000 +1.7810622030E+002  +3.0605771210E-004 +1.2443597844E+002  +2.9022063437E-004 +1.2859214770E+002  +9.7708987717E-001 +1.7796733342E+002 
9700000000.000 +1.0030783611E+000 +1.7817991881E+002  +2.9102820262E-004 +1.3447673323E+002  +2.9872096772E-004 +1.3122500937E+002  +9.7728158011E-001 +1.7796023082E+002 
9800000000.000 +1.0059532830E+000 +1.7819033254E+002  +3.0041569525E-004 +1.3197073787E+002  +2.9887646109E-004 +1.3360499491E+002  +9.7715915917E-001 +1.7800205481E+002 
9900000000.000 +1.0083365129E+000 +1.7824300525E+002  +3.1248131765E-004 +1.3049184629E+002  +3.0336592572E-004 +1.3204306814E+002  +9.7688233079E-001 +1.7797789308E+002 
10000000000.000 +1.0065603611E+000 +1.7821477855E+002  +3.0519980362E-004 +1.3591855734E+002  +3.0567700120E-004 +1.3245511726E+002  +9.7728058480E-001 +1.7790126144E+002 
10100000000.000 +1.0068500708E+000 +1.7826915663E+002  +2.8811315008E-004 +1.3658964860E+002  +3.0086796279E-004 +1.3310210123E+002  +9.7761377089E-001 +1.7789686051E+002 
10200000000.000 +1.0081296082E+000 +1.7826699552E+002  +3.5287122822E-004 +1.3774366522E+002  +3.1954958352E-004 +1.3503801932E+002  +9.7745758916E-001 +1.7792239015E+002 
10300000000.000 +1.0088775684E+000 +1.7824752240E+002  +3.6485454550E-004 +1.3613850804E+002  +3.4773999439E-004 +1.3398485609E+002  +9.7692236746E-001 +1.7791033586E+002 
10400000000.000 +1.0081518447E+000 +1.7816716619E+002  +3.7179931044E-004 +1.2906186150E+002  +3.3553917642E-004 +1.3470111184E+002  +9.7714143988E-001 +1.7783575551E+002 
10500000000.000 +1.0069711467E+000 +1.7815035056E+002  +3.2912784363E-004 +1.3882060638E+002  +3.4693644421E-004 +1.3506073748E+002  +9.7755669009E-001 +1.7782691379E+002 
10600000000.000 +1.0066305715E+000 +1.7815697660E+002  +3.2966126440E-004 +1.2963430190E+002  +3.3543870598E-004 +1.3559140036E+002  +9.7780222859E-001 +1.7784082158E+002 
10700000000.000 +1.0056434721E+000 +1.7807054030E+002  +3.6528248862E-004 +1.3428201704E+002  +3.3968301406E-004 +1.3506223230E+002  +9.7700422391E-001 +1.7781607951E+002 
10800000000.000 +1.0041116615E+000 +1.7796771228E+002  +3.7323144563E-004 +1.3957412230E+002  +3.5248185372E-004 +1.3550567245E+002  +9.7683343455E-001 +1.7777592455E+002 
10900000000.000 +1.0007169147E+000 +1.7785995621E+002  +3.4965538515E-004 +1.3647663832E+002  +3.4921494859E-004 +1.3442061888E+002  +9.7732779429E-001 +1.7775944199E+002 
11000000000.000 +9.9825464755E-001 +1.7777807748E+002  +3.6440850861E-004 +1.3557257124E+002  +3.3815374224E-004 +1.3629515194E+002  +9.7770967677E-001 +1.7778080550E+002 
11100000000.000 +9.9705482756E-001 +1.7767460348E+002  +3.2855706513E-004 +1.4072169279E+002  +3.3929064756E-004 +1.3812723812E+002  +9.7729573779E-001 +1.7774859995E+002 
11200000000.000 +9.9615587727E-001 +1.7758462321E+002  +3.5409567458E-004 +1.3494526234E+002  +3.5466890764E-004 +1.4088777336E+002  +9.7688900453E-001 +1.7768667642E+002 
11300000000.000 +9.9557695054E-001 +1.7749905807E+002  +3.3544497466E-004 +1.4279907275E+002  +3.3788448967E-004 +1.4250241659E+002  +9.7741137529E-001 +1.7770773900E+002 
11400000000.000 +9.9530446241E-001 +1.7744893912E+002  +3.4584145082E-004 +1.4684543343E+002  +3.5494261725E-004 +1.4413731618E+002  +9.7768079642E-001 +1.7775436697E+002 
11500000000.000 +9.9618134248E-001 +1.7746113555E+002  +3.6097088781E-004 +1.4596281549E+002  +3.5574182197E-004 +1.4800598866E+002  +9.7741604792E-001 +1.7770020975E+002 
