!  2-Port S-parameters saved by WinCal
! VAR MeasName=S-Parameters (CALIBRATED_DATA) read from VNA (N5247A)
! VAR MeasDate=2020/12/15 16:20:02
! VAR NAME=PAD_THRU
! VAR FILENAME=PAD_THRU.S2P
! VAR DATE=2020/12/15 16:20:02
! VAR PHYS_PORTS=1,2
! VAR ObjTypeName=DATASET
! VAR IndexType=Frequency
!
# Hz S MA R 50
100000000.000 +4.4758780782E-003 -2.0678759349E+001  +9.9775520162E-001 +1.4455250818E-002  +9.9809892703E-001 +2.2474272664E-002  +6.5304657142E-003 +4.0185472644E+000 
200000000.000 +6.4028523632E-003 -1.7598766026E+001  +9.9845895405E-001 -7.5488978716E-002  +9.9891224010E-001 -6.9747203366E-002  +5.8223115931E-003 +9.2561375590E+000 
300000000.000 +6.1869318120E-003 -9.9270627891E+000  +9.9840986532E-001 -1.4272072682E-001  +9.9880408404E-001 -1.3109023949E-001  +5.9951554565E-003 -2.1832503003E+001 
400000000.000 +5.3388399433E-003 -1.8049032604E+001  +9.9819826556E-001 -2.2305976699E-001  +9.9846514184E-001 -2.2165580677E-001  +6.9841275739E-003 -4.1109080055E+001 
500000000.000 +6.1562259804E-003 -3.4406244193E+001  +9.9851760760E-001 -3.0126811104E-001  +9.9890141248E-001 -2.9674013447E-001  +7.0514892343E-003 -3.5661198535E+001 
600000000.000 +6.6192672072E-003 -3.8147666679E+001  +9.9868115665E-001 -3.5548109589E-001  +9.9891664312E-001 -3.5478136332E-001  +7.0598398464E-003 -3.6490131572E+001 
700000000.000 +6.9258401480E-003 -4.7184571665E+001  +9.9864683613E-001 -4.2442341852E-001  +9.9885042398E-001 -4.1910221424E-001  +6.9741888501E-003 -4.6944935252E+001 
800000000.000 +8.1706674476E-003 -5.2950988819E+001  +9.9828191408E-001 -5.1107884326E-001  +9.9853225418E-001 -5.0094910209E-001  +7.7697950763E-003 -5.4261691398E+001 
900000000.000 +9.4634200521E-003 -5.6266190010E+001  +9.9861658308E-001 -5.7786895486E-001  +9.9898504437E-001 -5.6568735383E-001  +8.8446545953E-003 -5.4181741870E+001 
1000000000.000 +1.0195442038E-002 -5.6514033489E+001  +9.9871977705E-001 -6.3819630598E-001  +9.9902956910E-001 -6.2740195649E-001  +9.5002574424E-003 -5.2587660494E+001 
1100000000.000 +1.0701762448E-002 -5.6114073858E+001  +9.9870139263E-001 -6.9113266525E-001  +9.9891961582E-001 -6.8312510745E-001  +1.0452853054E-002 -5.2782201759E+001 
1200000000.000 +1.1518294266E-002 -5.8085394742E+001  +9.9833429652E-001 -7.6786708352E-001  +9.9869120698E-001 -7.5381313086E-001  +1.0997677065E-002 -5.8035345690E+001 
1300000000.000 +1.2238443585E-002 -5.8664034609E+001  +9.9862444000E-001 -8.4265836333E-001  +9.9909017904E-001 -8.3282973197E-001  +1.2135758823E-002 -6.3057435559E+001 
1400000000.000 +1.3215161658E-002 -6.3374453314E+001  +9.9874883422E-001 -9.0277078953E-001  +9.9911802573E-001 -8.8618197587E-001  +1.2621226532E-002 -6.4618304027E+001 
1500000000.000 +1.3421415077E-002 -6.6885467601E+001  +9.9871190272E-001 -9.6334599875E-001  +9.9904482969E-001 -9.4544999523E-001  +1.3422129571E-002 -6.5916736135E+001 
1600000000.000 +1.3932954043E-002 -6.5698720671E+001  +9.9845146272E-001 -1.0328865665E+000  +9.9880730659E-001 -1.0164626388E+000  +1.4212902539E-002 -6.7226993379E+001 
1700000000.000 +1.5414819242E-002 -6.7847345744E+001  +9.9877523362E-001 -1.1028068631E+000  +9.9904306320E-001 -1.0862721549E+000  +1.4698736249E-002 -7.0242818005E+001 
1800000000.000 +1.6591877850E-002 -7.0767067527E+001  +9.9886362452E-001 -1.1625936062E+000  +9.9923732338E-001 -1.1448277114E+000  +1.5306698049E-002 -7.1064141094E+001 
1900000000.000 +1.7021465045E-002 -7.1627399003E+001  +9.9884178549E-001 -1.2205781300E+000  +9.9921863393E-001 -1.2054071483E+000  +1.6039257238E-002 -7.0193669442E+001 
2000000000.000 +1.7409427913E-002 -6.9660877435E+001  +9.9869970535E-001 -1.2966785959E+000  +9.9904735721E-001 -1.2785972938E+000  +1.6876958800E-002 -6.8841336766E+001 
2100000000.000 +1.8851072394E-002 -6.9061902692E+001  +9.9890361402E-001 -1.3694435484E+000  +9.9929734333E-001 -1.3499711736E+000  +1.7844717622E-002 -6.9688615889E+001 
2200000000.000 +1.9642343985E-002 -7.1698522273E+001  +9.9893970359E-001 -1.4328224778E+000  +9.9931214497E-001 -1.4112819017E+000  +1.8982909692E-002 -7.2333841267E+001 
2300000000.000 +2.0026167682E-002 -7.4103115318E+001  +9.9880303890E-001 -1.4947757870E+000  +9.9922938603E-001 -1.4741266464E+000  +1.9597475335E-002 -7.3140010809E+001 
2400000000.000 +2.1152521731E-002 -7.4825443480E+001  +9.9879396122E-001 -1.5577744930E+000  +9.9924349975E-001 -1.5463192543E+000  +1.9856049043E-002 -7.3989637343E+001 
2500000000.000 +2.2542748880E-002 -7.3821383630E+001  +9.9887648275E-001 -1.6314866262E+000  +9.9943945091E-001 -1.6129235302E+000  +2.0622350689E-002 -7.4017986191E+001 
2600000000.000 +2.3663517471E-002 -7.3857516904E+001  +9.9895178217E-001 -1.6977215594E+000  +9.9943634626E-001 -1.6803399222E+000  +2.1890179836E-002 -7.4568201467E+001 
2700000000.000 +2.4330538368E-002 -7.4412816202E+001  +9.9880486810E-001 -1.7621971427E+000  +9.9942261217E-001 -1.7469213877E+000  +2.3071361147E-002 -7.4884455121E+001 
2800000000.000 +2.4405951928E-002 -7.5339874719E+001  +9.9883239539E-001 -1.8334299416E+000  +9.9934374150E-001 -1.8162135085E+000  +2.3966430384E-002 -7.5818993862E+001 
2900000000.000 +2.4461126164E-002 -7.5643985952E+001  +9.9895521557E-001 -1.8918591557E+000  +9.9948292597E-001 -1.8817601607E+000  +2.5138544121E-002 -7.6913272100E+001 
3000000000.000 +2.5234314775E-002 -7.6043703665E+001  +9.9898494617E-001 -1.9620620202E+000  +9.9955827661E-001 -1.9477647645E+000  +2.6429453668E-002 -7.7621698885E+001 
3100000000.000 +2.5925187118E-002 -7.8168476520E+001  +9.9889583499E-001 -2.0274610365E+000  +9.9945910906E-001 -2.0167366210E+000  +2.7310666287E-002 -7.8746589584E+001 
3200000000.000 +2.6955891089E-002 -7.9578553013E+001  +9.9889722594E-001 -2.0981578651E+000  +9.9943859214E-001 -2.0845365951E+000  +2.7560991123E-002 -7.9925208991E+001 
3300000000.000 +2.7649701917E-002 -8.1097603502E+001  +9.9898271842E-001 -2.1583942364E+000  +9.9957211470E-001 -2.1513443722E+000  +2.8148060989E-002 -8.1211508141E+001 
3400000000.000 +2.8720794254E-002 -8.1571476457E+001  +9.9899093854E-001 -2.2279653346E+000  +9.9954407217E-001 -2.2203966023E+000  +2.9262707027E-002 -8.1970529187E+001 
3500000000.000 +2.9451682604E-002 -8.2370412043E+001  +9.9894188490E-001 -2.3013854451E+000  +9.9952657220E-001 -2.2882886117E+000  +3.0352873542E-002 -8.2102913050E+001 
3600000000.000 +3.1209276127E-002 -8.3053638095E+001  +9.9884366548E-001 -2.3626807106E+000  +9.9951773896E-001 -2.3559131461E+000  +3.0869848509E-002 -8.2572166655E+001 
3700000000.000 +3.2421657884E-002 -8.4224238977E+001  +9.9905760745E-001 -2.4300701051E+000  +9.9965442943E-001 -2.4197354092E+000  +3.1528510108E-002 -8.3326006808E+001 
3800000000.000 +3.3737388080E-002 -8.5056858616E+001  +9.9918557272E-001 -2.4984316210E+000  +9.9973463618E-001 -2.4894821996E+000  +3.2000037853E-002 -8.3796674664E+001 
3900000000.000 +3.4702530887E-002 -8.4979939228E+001  +9.9905724610E-001 -2.5663645192E+000  +9.9966289829E-001 -2.5594861365E+000  +3.2516117360E-002 -8.3750261387E+001 
4000000000.000 +3.6457115871E-002 -8.3958154881E+001  +9.9918785644E-001 -2.6304529208E+000  +9.9972326293E-001 -2.6260700205E+000  +3.2944718962E-002 -8.4443990189E+001 
4100000000.000 +3.8130839483E-002 -8.3809986114E+001  +9.9940912107E-001 -2.6962175709E+000  +9.9987866020E-001 -2.6922821768E+000  +3.3459828483E-002 -8.4620594769E+001 
4200000000.000 +3.9273015190E-002 -8.3436955049E+001  +9.9945103151E-001 -2.7652396900E+000  +9.9992127367E-001 -2.7583760588E+000  +3.3895914301E-002 -8.4076409458E+001 
4300000000.000 +4.0072824682E-002 -8.2387612999E+001  +9.9940883445E-001 -2.8375941806E+000  +9.9996187897E-001 -2.8291770226E+000  +3.4080102585E-002 -8.3070305918E+001 
4400000000.000 +4.0559155470E-002 -8.0604976340E+001  +9.9937160362E-001 -2.9031821730E+000  +9.9995505357E-001 -2.8969788647E+000  +3.4753382335E-002 -8.2648656236E+001 
4500000000.000 +4.1191808935E-002 -7.9703235607E+001  +9.9949537288E-001 -2.9708566546E+000  +1.0000152497E+000 -2.9637558468E+000  +3.6181248650E-002 -8.2553446217E+001 
4600000000.000 +4.1215254330E-002 -7.9901995881E+001  +9.9942293964E-001 -3.0428007501E+000  +9.9998249545E-001 -3.0331059844E+000  +3.7691035350E-002 -8.2252311246E+001 
4700000000.000 +4.0803572820E-002 -7.9852264295E+001  +9.9921010901E-001 -3.1069204519E+000  +9.9979190570E-001 -3.1037413078E+000  +3.8742160580E-002 -8.1785963313E+001 
4800000000.000 +4.0646299589E-002 -8.0536453851E+001  +9.9909473398E-001 -3.1759796992E+000  +9.9969680577E-001 -3.1707079830E+000  +3.9612550985E-002 -8.2091443068E+001 
4900000000.000 +4.1012821667E-002 -8.1165631313E+001  +9.9894780350E-001 -3.2488041886E+000  +9.9962494023E-001 -3.2421790064E+000  +4.0886314379E-002 -8.2612995970E+001 
5000000000.000 +4.1478931545E-002 -8.2281698317E+001  +9.9890721562E-001 -3.3169910882E+000  +9.9949147425E-001 -3.3086429442E+000  +4.2364193196E-002 -8.2658061423E+001 
5100000000.000 +4.1589419297E-002 -8.3392110530E+001  +9.9887667054E-001 -3.3776189552E+000  +9.9940474603E-001 -3.3765891128E+000  +4.3346019353E-002 -8.2697776737E+001 
5200000000.000 +4.1900135387E-002 -8.4972494651E+001  +9.9873491730E-001 -3.4439395921E+000  +9.9941605229E-001 -3.4421137932E+000  +4.4394065657E-002 -8.3663811327E+001 
5300000000.000 +4.2890164147E-002 -8.5524212609E+001  +9.9874409032E-001 -3.5146857412E+000  +9.9928861836E-001 -3.5124820154E+000  +4.5713671956E-002 -8.4677985484E+001 
5400000000.000 +4.4193658579E-002 -8.7076095195E+001  +9.9866327104E-001 -3.5825660977E+000  +9.9918705242E-001 -3.5797984660E+000  +4.7234521023E-002 -8.5214566048E+001 
5500000000.000 +4.5563361914E-002 -8.8604069409E+001  +9.9858406990E-001 -3.6451153347E+000  +9.9912707043E-001 -3.6417055479E+000  +4.7698316921E-002 -8.5728314796E+001 
5600000000.000 +4.7302861713E-002 -8.9298297333E+001  +9.9860526929E-001 -3.7055048605E+000  +9.9912541987E-001 -3.7033058924E+000  +4.7538319512E-002 -8.7188110606E+001 
5700000000.000 +4.8871668654E-002 -8.9168439929E+001  +9.9841394748E-001 -3.7731556540E+000  +9.9901948163E-001 -3.7709813792E+000  +4.8152618015E-002 -8.8817028620E+001 
5800000000.000 +5.0781711414E-002 -8.8878379592E+001  +9.9841414854E-001 -3.8414804841E+000  +9.9889055678E-001 -3.8397882216E+000  +4.9442509951E-002 -8.9017141449E+001 
5900000000.000 +5.2604183574E-002 -8.8881823779E+001  +9.9841902959E-001 -3.9103855303E+000  +9.9889591935E-001 -3.9029214474E+000  +4.9797761959E-002 -8.8640476960E+001 
6000000000.000 +5.4055005462E-002 -8.8776899780E+001  +9.9849185005E-001 -3.9732683403E+000  +9.9894234535E-001 -3.9662013007E+000  +4.9611823683E-002 -8.8987461392E+001 
6100000000.000 +5.5210845954E-002 -8.8513801546E+001  +9.9855870889E-001 -4.0344459324E+000  +9.9899251087E-001 -4.0302142398E+000  +4.9946824998E-002 -9.0134139936E+001 
6200000000.000 +5.6321052418E-002 -8.7664130952E+001  +9.9840609286E-001 -4.1050955421E+000  +9.9888961564E-001 -4.1011465376E+000  +5.1113705832E-002 -8.9969587071E+001 
6300000000.000 +5.7477213111E-002 -8.7026433104E+001  +9.9852161943E-001 -4.1716940818E+000  +9.9894277455E-001 -4.1628067077E+000  +5.1518861835E-002 -8.9214031961E+001 
6400000000.000 +5.8474427967E-002 -8.6382945639E+001  +9.9863745644E-001 -4.2334447624E+000  +9.9905331788E-001 -4.2282071288E+000  +5.1291087894E-002 -8.9030366218E+001 
6500000000.000 +5.9234282061E-002 -8.6158061869E+001  +9.9862154703E-001 -4.3017270204E+000  +9.9909049926E-001 -4.2962800927E+000  +5.1575805979E-002 -8.9323512060E+001 
6600000000.000 +5.9537178092E-002 -8.5348834667E+001  +9.9872190846E-001 -4.3675560582E+000  +9.9910609549E-001 -4.3610371669E+000  +5.2469908372E-002 -8.8902731527E+001 
6700000000.000 +5.9754127008E-002 -8.4640128959E+001  +9.9879368598E-001 -4.4314175074E+000  +9.9927545402E-001 -4.4254672064E+000  +5.3258488620E-002 -8.7554094026E+001 
6800000000.000 +5.9348666214E-002 -8.4061313548E+001  +9.9887380685E-001 -4.5007103055E+000  +9.9937270374E-001 -4.4939680469E+000  +5.4284350575E-002 -8.6535346196E+001 
6900000000.000 +5.9443552548E-002 -8.4134709230E+001  +9.9890817732E-001 -4.5765285039E+000  +9.9936514662E-001 -4.5661622222E+000  +5.5442122976E-002 -8.6195667493E+001 
7000000000.000 +5.8841370503E-002 -8.4884992496E+001  +9.9868044853E-001 -4.6433079667E+000  +9.9908859743E-001 -4.6362987591E+000  +5.7244924854E-002 -8.6133041558E+001 
7100000000.000 +5.8204078660E-002 -8.5691507234E+001  +9.9859105970E-001 -4.7026330001E+000  +9.9899299158E-001 -4.6994461347E+000  +5.9018162853E-002 -8.6042544420E+001 
7200000000.000 +5.7958651444E-002 -8.6754655176E+001  +9.9856484910E-001 -4.7772443423E+000  +9.9909815135E-001 -4.7690386583E+000  +6.0914576775E-002 -8.6230544027E+001 
7300000000.000 +5.8668698306E-002 -8.8338686692E+001  +9.9851831793E-001 -4.8463160313E+000  +9.9899897006E-001 -4.8385478451E+000  +6.3116679728E-002 -8.6883418670E+001 
7400000000.000 +6.0020442079E-002 -9.0544200414E+001  +9.9809985283E-001 -4.9125050544E+000  +9.9862802223E-001 -4.9086163361E+000  +6.4565007283E-002 -8.7621532522E+001 
7500000000.000 +6.1366185285E-002 -9.1776657773E+001  +9.9790946171E-001 -4.9826411305E+000  +9.9844228272E-001 -4.9765519112E+000  +6.5140000271E-002 -8.8337814880E+001 
7600000000.000 +6.2751980258E-002 -9.2515846889E+001  +9.9786345837E-001 -5.0483725571E+000  +9.9842417511E-001 -5.0436581866E+000  +6.5946746584E-002 -8.9704779118E+001 
7700000000.000 +6.5193721614E-002 -9.2502098928E+001  +9.9777869143E-001 -5.1226766831E+000  +9.9816202006E-001 -5.1127618280E+000  +6.7213699653E-002 -9.0737860745E+001 
7800000000.000 +6.7457001138E-002 -9.3426568662E+001  +9.9774695765E-001 -5.1761704053E+000  +9.9815633298E-001 -5.1727246588E+000  +6.8442700229E-002 -9.1152923699E+001 
7900000000.000 +6.9507985408E-002 -9.3388992299E+001  +9.9799488787E-001 -5.2387419874E+000  +9.9829643629E-001 -5.2336069474E+000  +6.7916037128E-002 -9.1310195337E+001 
8000000000.000 +7.0567410540E-002 -9.2948738018E+001  +9.9782159498E-001 -5.3154660734E+000  +9.9839973276E-001 -5.3071085993E+000  +6.7085173253E-002 -9.2219773392E+001 
8100000000.000 +7.2390286456E-002 -9.1836702170E+001  +9.9762973811E-001 -5.3776635985E+000  +9.9817537534E-001 -5.3705761408E+000  +6.7526967783E-002 -9.3201398016E+001 
8200000000.000 +7.4718286786E-002 -9.1727460782E+001  +9.9782460414E-001 -5.4369696670E+000  +9.9821126677E-001 -5.4313317093E+000  +6.8608292003E-002 -9.3403630166E+001 
8300000000.000 +7.6090664120E-002 -9.1474802466E+001  +9.9806476893E-001 -5.5029520208E+000  +9.9842671965E-001 -5.4942613490E+000  +6.8547874347E-002 -9.2663319612E+001 
8400000000.000 +7.6797689117E-002 -9.0730758666E+001  +9.9806484323E-001 -5.5697793774E+000  +9.9858095376E-001 -5.5632222040E+000  +6.7707900229E-002 -9.2456130517E+001 
8500000000.000 +7.7414012038E-002 -8.9977359961E+001  +9.9795781025E-001 -5.6443729517E+000  +9.9843370540E-001 -5.6364550929E+000  +6.7810695506E-002 -9.2852432084E+001 
8600000000.000 +7.8392916637E-002 -8.9011721489E+001  +9.9791588185E-001 -5.7035966400E+000  +9.9839235774E-001 -5.6932397913E+000  +6.8892441920E-002 -9.2652512506E+001 
8700000000.000 +7.9057275124E-002 -8.8533425690E+001  +9.9828286650E-001 -5.7684764013E+000  +9.9871889316E-001 -5.7585086659E+000  +6.9489066580E-002 -9.1475062632E+001 
8800000000.000 +7.8890642757E-002 -8.7912513266E+001  +9.9841935156E-001 -5.8470414706E+000  +9.9885878519E-001 -5.8330335996E+000  +6.9468256670E-002 -9.0500389875E+001 
8900000000.000 +7.8202256877E-002 -8.7737367728E+001  +9.9816600407E-001 -5.9155786057E+000  +9.9860559840E-001 -5.9084698628E+000  +7.0165652487E-002 -9.0321718740E+001 
9000000000.000 +7.7501510365E-002 -8.7217873946E+001  +9.9807023769E-001 -5.9773698048E+000  +9.9857723330E-001 -5.9705917393E+000  +7.2151669695E-002 -8.9675641702E+001 
9100000000.000 +7.6903598803E-002 -8.7261530039E+001  +9.9835823067E-001 -6.0506817966E+000  +9.9875111905E-001 -6.0381749905E+000  +7.3933870959E-002 -8.8578192904E+001 
9200000000.000 +7.5723887479E-002 -8.8031946086E+001  +9.9804034200E-001 -6.1278873691E+000  +9.9856867920E-001 -6.1170290670E+000  +7.5589341912E-002 -8.8409701090E+001 
9300000000.000 +7.5092591812E-002 -8.9432107664E+001  +9.9754977620E-001 -6.1953691606E+000  +9.9806491827E-001 -6.1883953755E+000  +7.7585009773E-002 -8.9015650986E+001 
9400000000.000 +7.5791366122E-002 -9.1346258607E+001  +9.9703066631E-001 -6.2674955948E+000  +9.9752415286E-001 -6.2556569309E+000  +8.0123791060E-002 -8.9698192975E+001 
9500000000.000 +7.6340401817E-002 -9.3097793266E+001  +9.9695585090E-001 -6.3331191280E+000  +9.9745912761E-001 -6.3190760017E+000  +8.2048846183E-002 -9.0087083239E+001 
9600000000.000 +7.8578319758E-002 -9.3615043402E+001  +9.9649477836E-001 -6.4168773672E+000  +9.9699498302E-001 -6.4007193434E+000  +8.2541761175E-002 -9.1381586600E+001 
9700000000.000 +8.1414892401E-002 -9.3731889967E+001  +9.9597289763E-001 -6.4830270406E+000  +9.9657703638E-001 -6.4718470441E+000  +8.3259305688E-002 -9.2551868053E+001 
9800000000.000 +8.2577936784E-002 -9.4985940043E+001  +9.9608464848E-001 -6.5415176157E+000  +9.9655647106E-001 -6.5323767416E+000  +8.5105834346E-002 -9.3127934941E+001 
9900000000.000 +8.5057748025E-002 -9.5785606744E+001  +9.9617117226E-001 -6.6029850328E+000  +9.9657071186E-001 -6.5911641105E+000  +8.5380935752E-002 -9.3714456713E+001 
10000000000.000 +8.6176320003E-002 -9.4729986258E+001  +9.9587952982E-001 -6.6763153436E+000  +9.9633011772E-001 -6.6646107042E+000  +8.4922244033E-002 -9.4216500231E+001 
10100000000.000 +8.8738501732E-002 -9.4326368544E+001  +9.9572935377E-001 -6.7335251743E+000  +9.9624640591E-001 -6.7244518499E+000  +8.5391230190E-002 -9.5230519990E+001 
10200000000.000 +9.0714104112E-002 -9.4547203648E+001  +9.9592018086E-001 -6.7965904550E+000  +9.9635253605E-001 -6.7845818101E+000  +8.6220153051E-002 -9.5610402737E+001 
10300000000.000 +9.2401855491E-002 -9.4595727359E+001  +9.9603275340E-001 -6.8655544908E+000  +9.9646366361E-001 -6.8497573910E+000  +8.6229843521E-002 -9.5557306405E+001 
10400000000.000 +9.2927337154E-002 -9.4211393369E+001  +9.9601575392E-001 -6.9337365043E+000  +9.9646371026E-001 -6.9191715546E+000  +8.5508741603E-002 -9.5778371290E+001 
10500000000.000 +9.4691823879E-002 -9.3230673913E+001  +9.9606062613E-001 -6.9862035575E+000  +9.9657232685E-001 -6.9712884669E+000  +8.5390430805E-002 -9.6227819946E+001 
10600000000.000 +9.6977708617E-002 -9.2606253542E+001  +9.9648492277E-001 -7.0424070881E+000  +9.9699905047E-001 -7.0236230300E+000  +8.5526318993E-002 -9.6278089654E+001 
10700000000.000 +9.7836297945E-002 -9.2248200965E+001  +9.9671521554E-001 -7.1171749259E+000  +9.9713231935E-001 -7.1025070168E+000  +8.5365516946E-002 -9.5398493428E+001 
10800000000.000 +9.8099850678E-002 -9.1738274428E+001  +9.9672687849E-001 -7.1846688691E+000  +9.9716342351E-001 -7.1680965450E+000  +8.4958898668E-002 -9.4939827607E+001 
10900000000.000 +9.7726953053E-002 -9.0472811057E+001  +9.9681429552E-001 -7.2431657646E+000  +9.9718804877E-001 -7.2220975688E+000  +8.5201741195E-002 -9.4457076403E+001 
11000000000.000 +9.7892549630E-002 -8.9771375383E+001  +9.9702438134E-001 -7.3034326084E+000  +9.9750527699E-001 -7.2850593980E+000  +8.6282055175E-002 -9.3666115704E+001 
11100000000.000 +9.6928716318E-002 -8.9993559390E+001  +9.9693611687E-001 -7.3862630549E+000  +9.9735664163E-001 -7.3696959618E+000  +8.7776376082E-002 -9.2616980453E+001 
11200000000.000 +9.6155871874E-002 -9.0284996143E+001  +9.9662198966E-001 -7.4700078629E+000  +9.9708965186E-001 -7.4572586392E+000  +8.8824016293E-002 -9.1947568200E+001 
11300000000.000 +9.4862069931E-002 -9.0684841727E+001  +9.9612780874E-001 -7.5381669668E+000  +9.9668799657E-001 -7.5162520976E+000  +9.1147291541E-002 -9.2038943528E+001 
11400000000.000 +9.4132832117E-002 -9.1254407020E+001  +9.9607571480E-001 -7.5996629141E+000  +9.9666865823E-001 -7.5810519572E+000  +9.4088661173E-002 -9.1514129925E+001 
11500000000.000 +9.3973892243E-002 -9.2585050709E+001  +9.9580302544E-001 -7.6818197078E+000  +9.9628204105E-001 -7.6652727142E+000  +9.6301498410E-002 -9.1171200659E+001 
