# Hz S dB R 50
1.000000E+08 4.951956E-02 -3.487689E-01 2.925405E+00 1.797191E+02 -5.934976E+01 8.965421E+01 -9.044011E-01 -1.993806E-01
2.000000E+08 6.168602E-02 -7.739766E-01 2.944642E+00 1.792817E+02 -5.338403E+01 8.916112E+01 -9.100252E-01 -4.365989E-01
3.000000E+08 5.709704E-02 -1.172666E+00 2.945905E+00 1.787568E+02 -4.987204E+01 8.876617E+01 -9.141592E-01 -8.440542E-01
4.000000E+08 3.967844E-02 -1.626207E+00 2.940518E+00 1.781995E+02 -4.736290E+01 8.833662E+01 -9.081045E-01 -1.238432E+00
5.000000E+08 5.078613E-02 -2.046074E+00 2.941066E+00 1.777692E+02 -4.541908E+01 8.801777E+01 -9.079009E-01 -1.546311E+00
6.000000E+08 5.382537E-02 -2.430697E+00 2.945216E+00 1.773514E+02 -4.383305E+01 8.773076E+01 -9.096425E-01 -1.825165E+00
7.000000E+08 4.681084E-02 -2.856555E+00 2.943884E+00 1.768972E+02 -4.248974E+01 8.727672E+01 -9.155125E-01 -2.142186E+00
8.000000E+08 3.937729E-02 -3.319414E+00 2.945528E+00 1.764132E+02 -4.134572E+01 8.691708E+01 -9.132107E-01 -2.490518E+00
9.000000E+08 4.839153E-02 -3.739363E+00 2.940680E+00 1.759458E+02 -4.032369E+01 8.659222E+01 -9.156348E-01 -2.837622E+00
1.000000E+09 5.368422E-02 -4.130555E+00 2.940412E+00 1.755115E+02 -3.942069E+01 8.625268E+01 -9.112772E-01 -3.129437E+00
1.100000E+09 5.774621E-02 -4.529292E+00 2.946312E+00 1.750719E+02 -3.858802E+01 8.586741E+01 -9.151962E-01 -3.422966E+00
1.200000E+09 4.996691E-02 -4.968381E+00 2.942248E+00 1.746081E+02 -3.783506E+01 8.554145E+01 -9.171933E-01 -3.738545E+00
1.300000E+09 5.262793E-02 -5.406762E+00 2.941611E+00 1.741134E+02 -3.713429E+01 8.511620E+01 -9.196357E-01 -4.079839E+00
1.400000E+09 4.722197E-02 -5.817058E+00 2.932655E+00 1.736634E+02 -3.650837E+01 8.478177E+01 -9.184343E-01 -4.399290E+00
1.500000E+09 4.330748E-02 -6.219362E+00 2.929097E+00 1.732091E+02 -3.591076E+01 8.440561E+01 -9.202971E-01 -4.690835E+00
1.600000E+09 4.528464E-02 -6.626701E+00 2.926892E+00 1.727531E+02 -3.535182E+01 8.403120E+01 -9.258364E-01 -5.002388E+00
1.700000E+09 4.433395E-02 -7.050653E+00 2.924394E+00 1.723059E+02 -3.483139E+01 8.371346E+01 -9.310592E-01 -5.340351E+00
1.800000E+09 4.073383E-02 -7.474098E+00 2.917223E+00 1.718709E+02 -3.433742E+01 8.335063E+01 -9.290704E-01 -5.664436E+00
1.900000E+09 3.703064E-02 -7.882888E+00 2.912578E+00 1.714232E+02 -3.387755E+01 8.299049E+01 -9.270093E-01 -5.943726E+00
2.000000E+09 4.349265E-02 -8.297165E+00 2.913314E+00 1.709717E+02 -3.343165E+01 8.259096E+01 -9.269953E-01 -6.226373E+00
2.100000E+09 5.292071E-02 -8.718464E+00 2.921638E+00 1.705125E+02 -3.300074E+01 8.224012E+01 -9.332440E-01 -6.557807E+00
2.200000E+09 4.351253E-02 -9.140361E+00 2.911462E+00 1.700456E+02 -3.260223E+01 8.184972E+01 -9.381913E-01 -6.898499E+00
2.300000E+09 3.283825E-02 -9.543309E+00 2.905091E+00 1.696008E+02 -3.223595E+01 8.148602E+01 -9.350734E-01 -7.204000E+00
2.400000E+09 3.175913E-02 -9.969883E+00 2.900141E+00 1.691445E+02 -3.187055E+01 8.109595E+01 -9.387377E-01 -7.489501E+00
2.500000E+09 4.111619E-02 -1.038757E+01 2.901553E+00 1.686811E+02 -3.151748E+01 8.074455E+01 -9.444146E-01 -7.809907E+00
2.600000E+09 4.471289E-02 -1.080041E+01 2.900936E+00 1.682180E+02 -3.117427E+01 8.034477E+01 -9.535605E-01 -8.152978E+00
2.700000E+09 4.127011E-02 -1.122085E+01 2.893663E+00 1.677571E+02 -3.085480E+01 8.001059E+01 -9.551657E-01 -8.476563E+00
2.800000E+09 3.385140E-02 -1.162776E+01 2.880918E+00 1.672994E+02 -3.055227E+01 7.962272E+01 -9.572037E-01 -8.768637E+00
2.900000E+09 3.118052E-02 -1.202862E+01 2.874745E+00 1.668471E+02 -3.025199E+01 7.925449E+01 -9.621035E-01 -9.066119E+00
3.000000E+09 3.124990E-02 -1.244334E+01 2.869848E+00 1.663746E+02 -2.995257E+01 7.885584E+01 -9.706036E-01 -9.388036E+00
3.100000E+09 2.060699E-02 -1.287319E+01 2.860258E+00 1.659190E+02 -2.968798E+01 7.847306E+01 -9.714537E-01 -9.697870E+00
3.200000E+09 1.128697E-02 -1.329390E+01 2.849648E+00 1.654736E+02 -2.942802E+01 7.813453E+01 -9.723961E-01 -9.998256E+00
3.300000E+09 3.648586E-03 -1.370314E+01 2.837280E+00 1.650381E+02 -2.916176E+01 7.777509E+01 -9.798478E-01 -1.030412E+01
3.400000E+09 5.455883E-04 -1.411333E+01 2.832569E+00 1.645903E+02 -2.891076E+01 7.742219E+01 -9.868442E-01 -1.063266E+01
3.500000E+09 -2.444196E-03 -1.453934E+01 2.822872E+00 1.641357E+02 -2.866028E+01 7.706924E+01 -9.936336E-01 -1.095591E+01
3.600000E+09 -7.868928E-03 -1.497681E+01 2.812138E+00 1.636994E+02 -2.843577E+01 7.672364E+01 -9.934757E-01 -1.126201E+01
3.700000E+09 -1.340185E-02 -1.541283E+01 2.807008E+00 1.632600E+02 -2.820706E+01 7.638232E+01 -9.969993E-01 -1.156494E+01
3.800000E+09 -1.697118E-02 -1.583547E+01 2.797215E+00 1.628251E+02 -2.798348E+01 7.600220E+01 -1.001952E+00 -1.186590E+01
3.900000E+09 -1.703233E-02 -1.623676E+01 2.791890E+00 1.623847E+02 -2.776319E+01 7.566385E+01 -1.008815E+00 -1.216075E+01
4.000000E+09 -1.339371E-02 -1.665335E+01 2.787579E+00 1.619526E+02 -2.755088E+01 7.531600E+01 -1.015811E+00 -1.247760E+01
4.100000E+09 -1.237466E-02 -1.706507E+01 2.782073E+00 1.615315E+02 -2.734978E+01 7.495466E+01 -1.019112E+00 -1.279413E+01
4.200000E+09 -1.139044E-02 -1.747531E+01 2.779324E+00 1.610968E+02 -2.714776E+01 7.462255E+01 -1.020075E+00 -1.309000E+01
4.300000E+09 -5.576916E-03 -1.785501E+01 2.774419E+00 1.606494E+02 -2.695170E+01 7.425099E+01 -1.024862E+00 -1.337106E+01
4.400000E+09 4.209090E-03 -1.821797E+01 2.773224E+00 1.602011E+02 -2.674076E+01 7.388049E+01 -1.041243E+00 -1.369672E+01
4.500000E+09 8.710971E-03 -1.859179E+01 2.767753E+00 1.597438E+02 -2.655765E+01 7.350539E+01 -1.049253E+00 -1.402971E+01
4.600000E+09 2.894979E-03 -1.899414E+01 2.758299E+00 1.592929E+02 -2.638347E+01 7.314694E+01 -1.047837E+00 -1.433500E+01
4.700000E+09 -4.939777E-03 -1.937958E+01 2.750526E+00 1.588235E+02 -2.620154E+01 7.273997E+01 -1.051509E+00 -1.461224E+01
4.800000E+09 -1.324094E-02 -1.976125E+01 2.738792E+00 1.583582E+02 -2.603392E+01 7.238563E+01 -1.061703E+00 -1.490915E+01
4.900000E+09 -1.918904E-02 -2.015944E+01 2.726279E+00 1.578884E+02 -2.585876E+01 7.199649E+01 -1.075123E+00 -1.523441E+01
5.000000E+09 -2.901013E-02 -2.057923E+01 2.712729E+00 1.574422E+02 -2.570539E+01 7.165641E+01 -1.078261E+00 -1.553626E+01
5.100000E+09 -4.268541E-02 -2.099402E+01 2.701805E+00 1.569973E+02 -2.554525E+01 7.129523E+01 -1.080749E+00 -1.580826E+01
5.200000E+09 -5.880320E-02 -2.141799E+01 2.685567E+00 1.565316E+02 -2.539112E+01 7.087560E+01 -1.088961E+00 -1.608545E+01
5.300000E+09 -6.759559E-02 -2.184198E+01 2.672287E+00 1.560831E+02 -2.523520E+01 7.053927E+01 -1.100657E+00 -1.640538E+01
5.400000E+09 -7.887102E-02 -2.228314E+01 2.654002E+00 1.556269E+02 -2.508601E+01 7.017876E+01 -1.108202E+00 -1.672419E+01
5.500000E+09 -9.460258E-02 -2.272581E+01 2.632548E+00 1.551953E+02 -2.496034E+01 6.987129E+01 -1.107788E+00 -1.697061E+01
5.600000E+09 -1.048178E-01 -2.316031E+01 2.615874E+00 1.547846E+02 -2.481125E+01 6.950703E+01 -1.119119E+00 -1.723506E+01
5.700000E+09 -1.108123E-01 -2.356457E+01 2.603846E+00 1.543655E+02 -2.466779E+01 6.916203E+01 -1.133684E+00 -1.754842E+01
5.800000E+09 -1.115344E-01 -2.395648E+01 2.593224E+00 1.539408E+02 -2.452798E+01 6.884849E+01 -1.141255E+00 -1.790394E+01
5.900000E+09 -1.111837E-01 -2.436517E+01 2.580040E+00 1.535105E+02 -2.439709E+01 6.850563E+01 -1.145670E+00 -1.819553E+01
6.000000E+09 -1.130070E-01 -2.476850E+01 2.568724E+00 1.531022E+02 -2.427224E+01 6.820152E+01 -1.150141E+00 -1.844639E+01
6.100000E+09 -1.155940E-01 -2.516318E+01 2.558638E+00 1.526963E+02 -2.413368E+01 6.784921E+01 -1.164113E+00 -1.874426E+01
6.200000E+09 -1.144660E-01 -2.551643E+01 2.550016E+00 1.522729E+02 -2.399800E+01 6.750248E+01 -1.174659E+00 -1.908415E+01
6.300000E+09 -1.070534E-01 -2.587654E+01 2.542550E+00 1.518501E+02 -2.387344E+01 6.719219E+01 -1.178572E+00 -1.938131E+01
6.400000E+09 -1.022843E-01 -2.624341E+01 2.532655E+00 1.514405E+02 -2.375444E+01 6.687019E+01 -1.183651E+00 -1.963936E+01
6.500000E+09 -1.042533E-01 -2.662115E+01 2.522336E+00 1.510199E+02 -2.362967E+01 6.653999E+01 -1.193914E+00 -1.992976E+01
6.600000E+09 -1.039435E-01 -2.695971E+01 2.515689E+00 1.506032E+02 -2.350187E+01 6.618417E+01 -1.203576E+00 -2.023922E+01
6.700000E+09 -9.587113E-02 -2.728083E+01 2.510842E+00 1.501729E+02 -2.337245E+01 6.585331E+01 -1.212063E+00 -2.054893E+01
6.800000E+09 -9.388587E-02 -2.763272E+01 2.505323E+00 1.497158E+02 -2.325420E+01 6.549096E+01 -1.219663E+00 -2.082828E+01
6.900000E+09 -9.692307E-02 -2.802993E+01 2.494022E+00 1.492601E+02 -2.313695E+01 6.509029E+01 -1.229154E+00 -2.110928E+01
7.000000E+09 -1.149629E-01 -2.841395E+01 2.479564E+00 1.488155E+02 -2.302702E+01 6.473263E+01 -1.236649E+00 -2.139744E+01
7.100000E+09 -1.298581E-01 -2.879285E+01 2.465753E+00 1.483505E+02 -2.291711E+01 6.433615E+01 -1.247972E+00 -2.168315E+01
7.200000E+09 -1.447245E-01 -2.921248E+01 2.451119E+00 1.478684E+02 -2.281233E+01 6.394961E+01 -1.259399E+00 -2.197631E+01
7.300000E+09 -1.643686E-01 -2.965210E+01 2.426516E+00 1.474160E+02 -2.271391E+01 6.357592E+01 -1.266267E+00 -2.227922E+01
7.400000E+09 -1.907730E-01 -3.012682E+01 2.399390E+00 1.469937E+02 -2.262512E+01 6.323361E+01 -1.271428E+00 -2.254177E+01
7.500000E+09 -2.108810E-01 -3.056153E+01 2.372839E+00 1.465648E+02 -2.253092E+01 6.286461E+01 -1.280516E+00 -2.278601E+01
7.600000E+09 -2.250276E-01 -3.097848E+01 2.350416E+00 1.461404E+02 -2.243955E+01 6.250859E+01 -1.296779E+00 -2.306230E+01
7.700000E+09 -2.316059E-01 -3.140834E+01 2.330328E+00 1.457211E+02 -2.234572E+01 6.218307E+01 -1.307324E+00 -2.338943E+01
7.800000E+09 -2.410746E-01 -3.183183E+01 2.302333E+00 1.453336E+02 -2.225996E+01 6.188721E+01 -1.310098E+00 -2.366751E+01
7.900000E+09 -2.444727E-01 -3.222551E+01 2.287267E+00 1.449778E+02 -2.217280E+01 6.162033E+01 -1.310884E+00 -2.387841E+01
8.000000E+09 -2.494995E-01 -3.258416E+01 2.270901E+00 1.445730E+02 -2.208001E+01 6.130028E+01 -1.324878E+00 -2.413730E+01
8.100000E+09 -2.483554E-01 -3.292497E+01 2.260399E+00 1.441698E+02 -2.199021E+01 6.097231E+01 -1.342338E+00 -2.445702E+01
8.200000E+09 -2.437277E-01 -3.328294E+01 2.244691E+00 1.437853E+02 -2.190419E+01 6.069109E+01 -1.349882E+00 -2.478331E+01
8.300000E+09 -2.376409E-01 -3.364823E+01 2.236263E+00 1.434198E+02 -2.180997E+01 6.041089E+01 -1.353043E+00 -2.503606E+01
8.400000E+09 -2.356281E-01 -3.398778E+01 2.226353E+00 1.430312E+02 -2.172063E+01 6.010844E+01 -1.359722E+00 -2.526412E+01
8.500000E+09 -2.362818E-01 -3.430644E+01 2.215394E+00 1.426129E+02 -2.162792E+01 5.977747E+01 -1.376305E+00 -2.557393E+01
8.600000E+09 -2.289220E-01 -3.458181E+01 2.201097E+00 1.422148E+02 -2.154325E+01 5.947844E+01 -1.388627E+00 -2.589938E+01
8.700000E+09 -2.166049E-01 -3.491850E+01 2.193992E+00 1.418220E+02 -2.145197E+01 5.917910E+01 -1.395070E+00 -2.617336E+01
8.800000E+09 -2.140900E-01 -3.526783E+01 2.190069E+00 1.414047E+02 -2.136130E+01 5.884927E+01 -1.400484E+00 -2.641707E+01
8.900000E+09 -2.266265E-01 -3.560499E+01 2.177460E+00 1.409612E+02 -2.127131E+01 5.849048E+01 -1.415735E+00 -2.670362E+01
9.000000E+09 -2.308212E-01 -3.588569E+01 2.164363E+00 1.405121E+02 -2.118511E+01 5.812230E+01 -1.430216E+00 -2.702359E+01
9.100000E+09 -2.289080E-01 -3.624430E+01 2.151693E+00 1.400667E+02 -2.110341E+01 5.776002E+01 -1.439505E+00 -2.728306E+01
9.200000E+09 -2.503518E-01 -3.667317E+01 2.134659E+00 1.396078E+02 -2.102744E+01 5.739931E+01 -1.448957E+00 -2.752464E+01
9.300000E+09 -2.842139E-01 -3.708736E+01 2.109150E+00 1.391534E+02 -2.095603E+01 5.702954E+01 -1.463362E+00 -2.779937E+01
9.400000E+09 -3.178613E-01 -3.754654E+01 2.081216E+00 1.386934E+02 -2.088309E+01 5.663741E+01 -1.478375E+00 -2.810999E+01
9.500000E+09 -3.431554E-01 -3.797294E+01 2.049635E+00 1.382610E+02 -2.082592E+01 5.628321E+01 -1.487801E+00 -2.833352E+01
9.600000E+09 -3.605636E-01 -3.844477E+01 2.018095E+00 1.378633E+02 -2.077022E+01 5.597324E+01 -1.500139E+00 -2.856472E+01
9.700000E+09 -3.714797E-01 -3.886462E+01 1.990939E+00 1.374801E+02 -2.070628E+01 5.567516E+01 -1.510741E+00 -2.885996E+01
9.800000E+09 -3.921658E-01 -3.924974E+01 1.965894E+00 1.370832E+02 -2.063738E+01 5.536046E+01 -1.521281E+00 -2.916393E+01
9.900000E+09 -4.030917E-01 -3.965091E+01 1.938472E+00 1.367216E+02 -2.057892E+01 5.507812E+01 -1.530885E+00 -2.939199E+01
1.000000E+10 -4.014269E-01 -3.997765E+01 1.920365E+00 1.363483E+02 -2.051215E+01 5.480049E+01 -1.545473E+00 -2.962624E+01
1.010000E+10 -4.011964E-01 -4.034259E+01 1.900502E+00 1.359910E+02 -2.044948E+01 5.452063E+01 -1.557370E+00 -2.991500E+01
1.020000E+10 -4.047932E-01 -4.068775E+01 1.881198E+00 1.356249E+02 -2.038555E+01 5.423619E+01 -1.566283E+00 -3.020393E+01
1.030000E+10 -4.073449E-01 -4.102410E+01 1.863393E+00 1.352639E+02 -2.031666E+01 5.394891E+01 -1.575328E+00 -3.046752E+01
1.040000E+10 -4.084319E-01 -4.131958E+01 1.846285E+00 1.349091E+02 -2.025157E+01 5.367210E+01 -1.588038E+00 -3.069386E+01
1.050000E+10 -3.985567E-01 -4.161065E+01 1.833698E+00 1.345520E+02 -2.018221E+01 5.340587E+01 -1.603644E+00 -3.097605E+01
1.060000E+10 -3.827337E-01 -4.191759E+01 1.822331E+00 1.342038E+02 -2.011129E+01 5.313065E+01 -1.615414E+00 -3.126883E+01
1.070000E+10 -3.764457E-01 -4.223809E+01 1.812968E+00 1.338249E+02 -2.004467E+01 5.281882E+01 -1.622740E+00 -3.152377E+01
1.080000E+10 -3.741063E-01 -4.252091E+01 1.801270E+00 1.334488E+02 -1.997606E+01 5.250634E+01 -1.635586E+00 -3.176784E+01
1.090000E+10 -3.666861E-01 -4.274187E+01 1.792171E+00 1.330539E+02 -1.990350E+01 5.220269E+01 -1.651505E+00 -3.204701E+01
1.100000E+10 -3.550226E-01 -4.302290E+01 1.783840E+00 1.326362E+02 -1.983382E+01 5.187703E+01 -1.665980E+00 -3.233592E+01
1.110000E+10 -3.641321E-01 -4.339016E+01 1.768865E+00 1.322058E+02 -1.977504E+01 5.152621E+01 -1.674650E+00 -3.258385E+01
1.120000E+10 -3.814051E-01 -4.376063E+01 1.751931E+00 1.317823E+02 -1.971496E+01 5.115300E+01 -1.687127E+00 -3.280751E+01
1.130000E+10 -4.082432E-01 -4.410311E+01 1.729476E+00 1.313295E+02 -1.965608E+01 5.078125E+01 -1.704184E+00 -3.309934E+01
1.140000E+10 -4.230506E-01 -4.445292E+01 1.707419E+00 1.308764E+02 -1.960424E+01 5.040480E+01 -1.716132E+00 -3.336648E+01
1.150000E+10 -4.458801E-01 -4.492000E+01 1.676699E+00 1.304356E+02 -1.955956E+01 5.004824E+01 -1.726709E+00 -3.356862E+01
1.160000E+10 -4.805894E-01 -4.538935E+01 1.643898E+00 1.300457E+02 -1.951875E+01 4.972977E+01 -1.739875E+00 -3.375915E+01
1.170000E+10 -5.155588E-01 -4.582535E+01 1.612172E+00 1.296471E+02 -1.947424E+01 4.938993E+01 -1.752169E+00 -3.401442E+01
1.180000E+10 -5.395218E-01 -4.623421E+01 1.576705E+00 1.292367E+02 -1.943615E+01 4.907048E+01 -1.762613E+00 -3.429031E+01
1.190000E+10 -5.512240E-01 -4.664263E+01 1.541289E+00 1.288800E+02 -1.940063E+01 4.879352E+01 -1.769930E+00 -3.446887E+01
1.200000E+10 -5.604152E-01 -4.704852E+01 1.510988E+00 1.285696E+02 -1.935758E+01 4.856181E+01 -1.783094E+00 -3.463609E+01
1.210000E+10 -5.683454E-01 -4.740008E+01 1.486932E+00 1.282400E+02 -1.931089E+01 4.830252E+01 -1.801505E+00 -3.492704E+01
1.220000E+10 -5.729379E-01 -4.770312E+01 1.463530E+00 1.278916E+02 -1.926771E+01 4.804908E+01 -1.805273E+00 -3.521293E+01
1.230000E+10 -5.708549E-01 -4.798307E+01 1.440804E+00 1.275747E+02 -1.922397E+01 4.780749E+01 -1.813947E+00 -3.541227E+01
1.240000E+10 -5.588931E-01 -4.823772E+01 1.423624E+00 1.272720E+02 -1.917323E+01 4.759812E+01 -1.828275E+00 -3.557260E+01
1.250000E+10 -5.507821E-01 -4.851181E+01 1.413047E+00 1.269384E+02 -1.911413E+01 4.734468E+01 -1.846473E+00 -3.584926E+01
1.260000E+10 -5.512406E-01 -4.879258E+01 1.397545E+00 1.265698E+02 -1.906124E+01 4.705141E+01 -1.856514E+00 -3.619160E+01
1.270000E+10 -5.537742E-01 -4.903295E+01 1.380285E+00 1.261986E+02 -1.901383E+01 4.676458E+01 -1.861225E+00 -3.642637E+01
1.280000E+10 -5.548888E-01 -4.926730E+01 1.364738E+00 1.258474E+02 -1.896663E+01 4.649340E+01 -1.875289E+00 -3.659500E+01
1.290000E+10 -5.550179E-01 -4.957642E+01 1.350624E+00 1.254872E+02 -1.891281E+01 4.621063E+01 -1.895258E+00 -3.683818E+01
1.300000E+10 -5.572852E-01 -4.990363E+01 1.337565E+00 1.250978E+02 -1.885742E+01 4.589283E+01 -1.906127E+00 -3.714310E+01
1.310000E+10 -5.717753E-01 -5.017671E+01 1.322268E+00 1.246947E+02 -1.880505E+01 4.554773E+01 -1.918151E+00 -3.741641E+01
1.320000E+10 -5.926983E-01 -5.054224E+01 1.298819E+00 1.242718E+02 -1.876626E+01 4.521655E+01 -1.930210E+00 -3.761216E+01
1.330000E+10 -6.047028E-01 -5.091637E+01 1.276312E+00 1.238578E+02 -1.872681E+01 4.487888E+01 -1.948879E+00 -3.783419E+01
1.340000E+10 -6.243030E-01 -5.132074E+01 1.250447E+00 1.234568E+02 -1.868542E+01 4.454800E+01 -1.965641E+00 -3.809052E+01
1.350000E+10 -6.525726E-01 -5.173291E+01 1.222002E+00 1.230701E+02 -1.865147E+01 4.424606E+01 -1.970309E+00 -3.831395E+01
1.360000E+10 -6.797352E-01 -5.212128E+01 1.191154E+00 1.226871E+02 -1.861456E+01 4.392783E+01 -1.986298E+00 -3.854815E+01
1.370000E+10 -6.983992E-01 -5.253532E+01 1.157014E+00 1.223002E+02 -1.858660E+01 4.362110E+01 -2.001164E+00 -3.877208E+01
1.380000E+10 -7.053905E-01 -5.294083E+01 1.124461E+00 1.219532E+02 -1.856138E+01 4.336488E+01 -2.010965E+00 -3.902247E+01
1.390000E+10 -7.174021E-01 -5.331193E+01 1.094282E+00 1.216292E+02 -1.852803E+01 4.313174E+01 -2.018950E+00 -3.921086E+01
1.400000E+10 -7.236959E-01 -5.368426E+01 1.065852E+00 1.213224E+02 -1.849353E+01 4.287909E+01 -2.032049E+00 -3.943236E+01
1.410000E+10 -7.254144E-01 -5.393360E+01 1.041278E+00 1.209959E+02 -1.845986E+01 4.263134E+01 -2.045988E+00 -3.969432E+01
1.420000E+10 -7.170936E-01 -5.419099E+01 1.013713E+00 1.206898E+02 -1.842868E+01 4.241772E+01 -2.057507E+00 -3.995302E+01
1.430000E+10 -7.054128E-01 -5.444331E+01 9.927160E-01 1.204170E+02 -1.839268E+01 4.221082E+01 -2.061170E+00 -4.011955E+01
1.440000E+10 -6.944570E-01 -5.468520E+01 9.790382E-01 1.201220E+02 -1.834682E+01 4.199073E+01 -2.072776E+00 -4.031291E+01
1.450000E+10 -6.886526E-01 -5.488557E+01 9.670973E-01 1.198060E+02 -1.830244E+01 4.174417E+01 -2.091031E+00 -4.058976E+01
1.460000E+10 -6.912717E-01 -5.501815E+01 9.474388E-01 1.194648E+02 -1.826212E+01 4.148949E+01 -2.103304E+00 -4.087741E+01
1.470000E+10 -6.815862E-01 -5.525306E+01 9.308364E-01 1.191265E+02 -1.822047E+01 4.123994E+01 -2.110705E+00 -4.106990E+01
1.480000E+10 -6.806086E-01 -5.554226E+01 9.196510E-01 1.187782E+02 -1.817751E+01 4.095253E+01 -2.120136E+00 -4.120583E+01
1.490000E+10 -6.974940E-01 -5.581300E+01 9.052252E-01 1.184004E+02 -1.813338E+01 4.064710E+01 -2.140712E+00 -4.146472E+01
1.500000E+10 -7.201621E-01 -5.607413E+01 8.822327E-01 1.180101E+02 -1.809857E+01 4.033229E+01 -2.153812E+00 -4.176212E+01
1.510000E+10 -7.373819E-01 -5.637072E+01 8.547676E-01 1.176354E+02 -1.806876E+01 4.003849E+01 -2.160676E+00 -4.195608E+01
1.520000E+10 -7.541043E-01 -5.680273E+01 8.319234E-01 1.172602E+02 -1.803678E+01 3.974260E+01 -2.173941E+00 -4.205961E+01
1.530000E+10 -7.858441E-01 -5.723047E+01 8.042470E-01 1.168730E+02 -1.800646E+01 3.942391E+01 -2.192764E+00 -4.228864E+01
1.540000E+10 -8.107557E-01 -5.763004E+01 7.750774E-01 1.165142E+02 -1.798233E+01 3.913715E+01 -2.204245E+00 -4.256344E+01
1.550000E+10 -8.310958E-01 -5.796063E+01 7.418966E-01 1.161525E+02 -1.796087E+01 3.885716E+01 -2.212537E+00 -4.276329E+01
1.560000E+10 -8.416818E-01 -5.836420E+01 7.102737E-01 1.158195E+02 -1.793778E+01 3.858289E+01 -2.226758E+00 -4.289234E+01
1.570000E+10 -8.496218E-01 -5.879031E+01 6.819955E-01 1.154850E+02 -1.791072E+01 3.832813E+01 -2.241972E+00 -4.308394E+01
1.580000E+10 -8.607641E-01 -5.915288E+01 6.542419E-01 1.151483E+02 -1.788605E+01 3.807435E+01 -2.255948E+00 -4.334443E+01
1.590000E+10 -8.656895E-01 -5.944820E+01 6.249820E-01 1.148527E+02 -1.786275E+01 3.784690E+01 -2.263294E+00 -4.356211E+01
1.600000E+10 -8.690711E-01 -5.968706E+01 5.982874E-01 1.145532E+02 -1.783797E+01 3.761305E+01 -2.277864E+00 -4.373581E+01
1.610000E+10 -8.581450E-01 -5.995463E+01 5.748709E-01 1.142701E+02 -1.781131E+01 3.741401E+01 -2.289078E+00 -4.394129E+01
1.620000E+10 -8.422467E-01 -6.022287E+01 5.570957E-01 1.139688E+02 -1.777751E+01 3.718693E+01 -2.302259E+00 -4.417940E+01
1.630000E+10 -8.383315E-01 -6.045567E+01 5.395226E-01 1.136745E+02 -1.774253E+01 3.695864E+01 -2.313243E+00 -4.440422E+01
1.640000E+10 -8.382912E-01 -6.060383E+01 5.215651E-01 1.133660E+02 -1.770994E+01 3.673131E+01 -2.329671E+00 -4.461867E+01
